2020-08-11 21:28:45,758 MainThread      DEBUG    transaction    :115      Current transaction state - IDLE
2020-08-11 21:28:45,761 MainThread      DEBUG    transaction    :120      Running transaction 1
2020-08-11 21:28:45,775 MainThread      DEBUG    transaction    :219      SEND: 0x0 0x1 0x0 0x0 0x0 0x6 0x1 0x3 0x0 0x0 0x0 0x50
2020-08-11 21:28:45,778 MainThread      DEBUG    sync           :75       New Transaction state 'SENDING'
2020-08-11 21:28:45,781 MainThread      DEBUG    transaction    :228      Changing transaction state from 'SENDING' to 'WAITING FOR REPLY'
2020-08-11 21:28:45,794 MainThread      DEBUG    transaction    :304      Changing transaction state from 'WAITING FOR REPLY' to 'PROCESSING REPLY'
2020-08-11 21:28:45,813 MainThread      DEBUG    transaction    :233      RECV: 0x0 0x1 0x0 0x0 0x0 0xa3 0x1 0x3 0xa0 0x0 0xb4 0x0 0x0 0x0 0x50 0x0 0x0 0x0 0x32 0x0 0x0 0x0 0x0 0x0 0x0 0x22 0x4c 0x22 0x3d 0x0 0x0 0x0 0x21 0xff 0xfb 0xff 0xfa 0x0 0x5 0x5c 0x8 0x46 0x70 0x59 0x60 0x4c 0x0 0x4f 0x10 0x74 0xd0 0x57 0x38 0x0 0x1 0x72 0xa5 0x22 0x35 0x22 0x41 0x22 0x36 0x0 0x11 0x0 0x0 0x0 0x0 0x5c 0x7 0x46 0x6c 0x59 0x5e 0x4b 0xf6 0x57 0x33 0x0 0x1e 0x0 0x1d 0x0 0x1d 0x22 0x35 0xff 0xfe 0x8 0x72 0x2a 0x83 0x0 0x0 0x1a 0xa3 0x0 0x0 0x0 0x0 0x0 0x0 0x0 0x0 0x0 0xa6 0x0 0x9 0x0 0x3 0x0 0x0 0x0 0x1 0xce 0x3a 0x0 0x1 0xce 0x3a 0x2 0x6e 0x2 0x6e 0x0 0x0 0x0 0x0 0x0 0x0 0x19 0x62 0x21 0xd8 0x0 0x0 0x20 0x9b 0x24 0x1 0x35 0x53 0x2 0xdc 0xe 0x10 0x0 0x0 0x24 0x2e 0x0 0x18 0x0 0x21 0x0 0x0 0x0 0x0 0x0 0x0 0x0 0x0 0x0 0x0 0x0 0x0 0x0 0x0
2020-08-11 21:28:45,831 MainThread      DEBUG    socket_framer  :147      Processing: 0x0 0x1 0x0 0x0 0x0 0xa3 0x1 0x3 0xa0 0x0 0xb4 0x0 0x0 0x0 0x50 0x0 0x0 0x0 0x32 0x0 0x0 0x0 0x0 0x0 0x0 0x22 0x4c 0x22 0x3d 0x0 0x0 0x0 0x21 0xff 0xfb 0xff 0xfa 0x0 0x5 0x5c 0x8 0x46 0x70 0x59 0x60 0x4c 0x0 0x4f 0x10 0x74 0xd0 0x57 0x38 0x0 0x1 0x72 0xa5 0x22 0x35 0x22 0x41 0x22 0x36 0x0 0x11 0x0 0x0 0x0 0x0 0x5c 0x7 0x46 0x6c 0x59 0x5e 0x4b 0xf6 0x57 0x33 0x0 0x1e 0x0 0x1d 0x0 0x1d 0x22 0x35 0xff 0xfe 0x8 0x72 0x2a 0x83 0x0 0x0 0x1a 0xa3 0x0 0x0 0x0 0x0 0x0 0x0 0x0 0x0 0x0 0xa6 0x0 0x9 0x0 0x3 0x0 0x0 0x0 0x1 0xce 0x3a 0x0 0x1 0xce 0x3a 0x2 0x6e 0x2 0x6e 0x0 0x0 0x0 0x0 0x0 0x0 0x19 0x62 0x21 0xd8 0x0 0x0 0x20 0x9b 0x24 0x1 0x35 0x53 0x2 0xdc 0xe 0x10 0x0 0x0 0x24 0x2e 0x0 0x18 0x0 0x21 0x0 0x0 0x0 0x0 0x0 0x0 0x0 0x0 0x0 0x0 0x0 0x0 0x0 0x0
2020-08-11 21:28:45,834 MainThread      DEBUG    factory        :266      Factory Response[ReadHoldingRegistersResponse: 3]
2020-08-11 21:28:45,851 MainThread      DEBUG    transaction    :383      Adding transaction 1
2020-08-11 21:28:45,854 MainThread      DEBUG    transaction    :394      Getting transaction 1
2020-08-11 21:28:45,867 MainThread      DEBUG    transaction    :193      Changing transaction state from 'PROCESSING REPLY' to 'TRANSACTION_COMPLETE'
2020-08-11 21:42:05,638 MainThread      DEBUG    transaction    :115      Current transaction state - IDLE
2020-08-11 21:42:05,643 MainThread      DEBUG    transaction    :120      Running transaction 1
2020-08-11 21:42:05,648 MainThread      DEBUG    transaction    :219      SEND: 0x0 0x1 0x0 0x0 0x0 0x6 0x1 0x3 0x0 0x0 0x0 0x50
2020-08-11 21:42:05,651 MainThread      DEBUG    sync           :75       New Transaction state 'SENDING'
2020-08-11 21:42:05,654 MainThread      DEBUG    transaction    :228      Changing transaction state from 'SENDING' to 'WAITING FOR REPLY'
2020-08-11 21:42:05,667 MainThread      DEBUG    transaction    :304      Changing transaction state from 'WAITING FOR REPLY' to 'PROCESSING REPLY'
2020-08-11 21:42:05,675 MainThread      DEBUG    transaction    :233      RECV: 0x0 0x1 0x0 0x0 0x0 0xa3 0x1 0x3 0xa0 0x0 0xb4 0x0 0x0 0x0 0x50 0x0 0x0 0x0 0x32 0x0 0x0 0x0 0x0 0x0 0x0 0x22 0x4c 0x22 0x39 0x0 0x0 0x0 0x20 0xff 0xfd 0xff 0xfb 0x0 0x6 0x5c 0x8 0x46 0x70 0x59 0x60 0x4b 0xf8 0x4f 0x70 0x75 0x40 0x57 0x30 0x0 0x1 0x72 0xa5 0x22 0x34 0x22 0x40 0x22 0x33 0x0 0x12 0x0 0x0 0x0 0x0 0x5c 0x8 0x46 0x6e 0x59 0x60 0x4b 0xfa 0x57 0x34 0x0 0x1d 0x0 0x1c 0x0 0x1c 0x22 0x33 0xff 0xfe 0x8 0x72 0x2a 0x83 0x0 0x0 0x1a 0xa3 0x0 0x0 0x0 0x0 0x0 0x0 0x0 0x0 0x0 0xa6 0x0 0x9 0x0 0x3 0x0 0x0 0x0 0x1 0xce 0x3a 0x0 0x1 0xce 0x3a 0x2 0x6e 0x2 0x6e 0x0 0x0 0x0 0x0 0x0 0x0 0x19 0x62 0x21 0xd8 0x0 0x0 0x20 0x9b 0x24 0x1 0x35 0x53 0x2 0xdc 0xe 0x10 0x0 0x0 0x24 0x2e 0x0 0x18 0x0 0x21 0x0 0x0 0x0 0x0 0x0 0x0 0x0 0x0 0x0 0x0 0x0 0x0 0x0 0x0
2020-08-11 21:42:05,684 MainThread      DEBUG    socket_framer  :147      Processing: 0x0 0x1 0x0 0x0 0x0 0xa3 0x1 0x3 0xa0 0x0 0xb4 0x0 0x0 0x0 0x50 0x0 0x0 0x0 0x32 0x0 0x0 0x0 0x0 0x0 0x0 0x22 0x4c 0x22 0x39 0x0 0x0 0x0 0x20 0xff 0xfd 0xff 0xfb 0x0 0x6 0x5c 0x8 0x46 0x70 0x59 0x60 0x4b 0xf8 0x4f 0x70 0x75 0x40 0x57 0x30 0x0 0x1 0x72 0xa5 0x22 0x34 0x22 0x40 0x22 0x33 0x0 0x12 0x0 0x0 0x0 0x0 0x5c 0x8 0x46 0x6e 0x59 0x60 0x4b 0xfa 0x57 0x34 0x0 0x1d 0x0 0x1c 0x0 0x1c 0x22 0x33 0xff 0xfe 0x8 0x72 0x2a 0x83 0x0 0x0 0x1a 0xa3 0x0 0x0 0x0 0x0 0x0 0x0 0x0 0x0 0x0 0xa6 0x0 0x9 0x0 0x3 0x0 0x0 0x0 0x1 0xce 0x3a 0x0 0x1 0xce 0x3a 0x2 0x6e 0x2 0x6e 0x0 0x0 0x0 0x0 0x0 0x0 0x19 0x62 0x21 0xd8 0x0 0x0 0x20 0x9b 0x24 0x1 0x35 0x53 0x2 0xdc 0xe 0x10 0x0 0x0 0x24 0x2e 0x0 0x18 0x0 0x21 0x0 0x0 0x0 0x0 0x0 0x0 0x0 0x0 0x0 0x0 0x0 0x0 0x0 0x0
2020-08-11 21:42:05,688 MainThread      DEBUG    factory        :266      Factory Response[ReadHoldingRegistersResponse: 3]
2020-08-11 21:42:05,694 MainThread      DEBUG    transaction    :383      Adding transaction 1
2020-08-11 21:42:05,698 MainThread      DEBUG    transaction    :394      Getting transaction 1
2020-08-11 21:42:05,700 MainThread      DEBUG    transaction    :193      Changing transaction state from 'PROCESSING REPLY' to 'TRANSACTION_COMPLETE'
2020-08-11 21:42:52,936 MainThread      DEBUG    transaction    :115      Current transaction state - IDLE
2020-08-11 21:42:52,939 MainThread      DEBUG    transaction    :120      Running transaction 1
2020-08-11 21:42:52,943 MainThread      DEBUG    transaction    :219      SEND: 0x0 0x1 0x0 0x0 0x0 0x6 0x1 0x3 0x0 0x0 0x0 0x50
2020-08-11 21:42:52,946 MainThread      DEBUG    sync           :75       New Transaction state 'SENDING'
2020-08-11 21:42:52,949 MainThread      DEBUG    transaction    :228      Changing transaction state from 'SENDING' to 'WAITING FOR REPLY'
2020-08-11 21:42:52,962 MainThread      DEBUG    transaction    :304      Changing transaction state from 'WAITING FOR REPLY' to 'PROCESSING REPLY'
2020-08-11 21:42:52,971 MainThread      DEBUG    transaction    :233      RECV: 0x0 0x1 0x0 0x0 0x0 0xa3 0x1 0x3 0xa0 0x0 0xb4 0x0 0x0 0x0 0x50 0x0 0x0 0x0 0x32 0x0 0x0 0x0 0x0 0x0 0x0 0x22 0x44 0x22 0x35 0x0 0x18 0x0 0x22 0xff 0xfc 0xff 0xfa 0x0 0x6 0x5c 0x10 0x46 0x70 0x59 0x58 0x4b 0xf0 0x4f 0x70 0x75 0x40 0x57 0x38 0x0 0x0 0x72 0xa5 0x22 0x33 0x22 0x42 0x22 0x32 0x0 0x11 0x0 0x0 0x0 0x0 0x5c 0x7 0x46 0x6d 0x59 0x54 0x4b 0xf7 0x57 0x33 0x0 0x1d 0x0 0x1c 0x0 0x1c 0x22 0x33 0xff 0xfd 0x8 0x72 0x2a 0x83 0x0 0x0 0x1a 0xa3 0x0 0x0 0x0 0x0 0x0 0x0 0x0 0x0 0x0 0xa6 0x0 0x9 0x0 0x3 0x0 0x0 0x0 0x1 0xce 0x3a 0x0 0x1 0xce 0x3a 0x2 0x6e 0x2 0x6e 0x0 0x0 0x0 0x0 0x0 0x0 0x19 0x62 0x21 0xd8 0x0 0x0 0x20 0x9b 0x24 0x1 0x35 0x53 0x2 0xdc 0xe 0x10 0x0 0x0 0x24 0x2e 0x0 0x18 0x0 0x21 0x0 0x0 0x0 0x0 0x0 0x0 0x0 0x0 0x0 0x0 0x0 0x0 0x0 0x0
2020-08-11 21:42:52,979 MainThread      DEBUG    socket_framer  :147      Processing: 0x0 0x1 0x0 0x0 0x0 0xa3 0x1 0x3 0xa0 0x0 0xb4 0x0 0x0 0x0 0x50 0x0 0x0 0x0 0x32 0x0 0x0 0x0 0x0 0x0 0x0 0x22 0x44 0x22 0x35 0x0 0x18 0x0 0x22 0xff 0xfc 0xff 0xfa 0x0 0x6 0x5c 0x10 0x46 0x70 0x59 0x58 0x4b 0xf0 0x4f 0x70 0x75 0x40 0x57 0x38 0x0 0x0 0x72 0xa5 0x22 0x33 0x22 0x42 0x22 0x32 0x0 0x11 0x0 0x0 0x0 0x0 0x5c 0x7 0x46 0x6d 0x59 0x54 0x4b 0xf7 0x57 0x33 0x0 0x1d 0x0 0x1c 0x0 0x1c 0x22 0x33 0xff 0xfd 0x8 0x72 0x2a 0x83 0x0 0x0 0x1a 0xa3 0x0 0x0 0x0 0x0 0x0 0x0 0x0 0x0 0x0 0xa6 0x0 0x9 0x0 0x3 0x0 0x0 0x0 0x1 0xce 0x3a 0x0 0x1 0xce 0x3a 0x2 0x6e 0x2 0x6e 0x0 0x0 0x0 0x0 0x0 0x0 0x19 0x62 0x21 0xd8 0x0 0x0 0x20 0x9b 0x24 0x1 0x35 0x53 0x2 0xdc 0xe 0x10 0x0 0x0 0x24 0x2e 0x0 0x18 0x0 0x21 0x0 0x0 0x0 0x0 0x0 0x0 0x0 0x0 0x0 0x0 0x0 0x0 0x0 0x0
2020-08-11 21:42:52,983 MainThread      DEBUG    factory        :266      Factory Response[ReadHoldingRegistersResponse: 3]
2020-08-11 21:42:52,990 MainThread      DEBUG    transaction    :383      Adding transaction 1
2020-08-11 21:42:52,993 MainThread      DEBUG    transaction    :394      Getting transaction 1
2020-08-11 21:42:52,995 MainThread      DEBUG    transaction    :193      Changing transaction state from 'PROCESSING REPLY' to 'TRANSACTION_COMPLETE'
2020-08-12 00:08:52,827 MainThread      DEBUG    transaction    :115      Current transaction state - IDLE
2020-08-12 00:08:52,830 MainThread      DEBUG    transaction    :120      Running transaction 1
2020-08-12 00:08:52,834 MainThread      DEBUG    transaction    :219      SEND: 0x0 0x1 0x0 0x0 0x0 0x6 0x1 0x3 0x0 0x0 0x0 0x50
2020-08-12 00:08:52,847 MainThread      DEBUG    sync           :75       New Transaction state 'SENDING'
2020-08-12 00:08:52,850 MainThread      DEBUG    transaction    :228      Changing transaction state from 'SENDING' to 'WAITING FOR REPLY'
2020-08-12 00:08:52,864 MainThread      DEBUG    transaction    :304      Changing transaction state from 'WAITING FOR REPLY' to 'PROCESSING REPLY'
2020-08-12 00:08:52,882 MainThread      DEBUG    transaction    :233      RECV: 0x0 0x1 0x0 0x0 0x0 0xa3 0x1 0x3 0xa0 0x0 0xb4 0x0 0x0 0x0 0x50 0x0 0x0 0x0 0x32 0x0 0x0 0x0 0x0 0x0 0x0 0x22 0x1f 0x22 0xe 0x0 0x18 0x0 0x1c 0xff 0xfd 0xff 0xfa 0x0 0x6 0x5c 0x8 0x46 0x68 0x59 0x58 0x4b 0xe0 0x54 0x60 0x7a 0x90 0x57 0x38 0x0 0x1 0x72 0xa5 0x22 0xc 0x22 0x1d 0x22 0xc 0x0 0x11 0x0 0x0 0x0 0x0 0x5c 0x3 0x46 0x69 0x59 0x53 0x4b 0xf6 0x57 0x30 0x0 0x1b 0x0 0x1a 0x0 0x1a 0x22 0xc 0xff 0xf8 0x8 0x72 0x2a 0x83 0x0 0x0 0x1a 0xa6 0x0 0x0 0x0 0x0 0x0 0x0 0x0 0x0 0x0 0xa6 0x0 0xb 0x0 0x3 0x0 0x0 0x0 0x1 0xce 0x3a 0x0 0x1 0xce 0x3a 0x2 0x6e 0x2 0x6e 0x0 0x0 0x0 0x0 0x0 0x0 0x19 0x62 0x21 0xd8 0x0 0x0 0x20 0x82 0x24 0x1 0x35 0x53 0x2 0xdc 0xe 0x10 0x0 0x0 0x24 0x2e 0x0 0x18 0x0 0x21 0x0 0x0 0x0 0x0 0x0 0x0 0x0 0x0 0x0 0x0 0x0 0x0 0x0 0x0
2020-08-12 00:08:52,900 MainThread      DEBUG    socket_framer  :147      Processing: 0x0 0x1 0x0 0x0 0x0 0xa3 0x1 0x3 0xa0 0x0 0xb4 0x0 0x0 0x0 0x50 0x0 0x0 0x0 0x32 0x0 0x0 0x0 0x0 0x0 0x0 0x22 0x1f 0x22 0xe 0x0 0x18 0x0 0x1c 0xff 0xfd 0xff 0xfa 0x0 0x6 0x5c 0x8 0x46 0x68 0x59 0x58 0x4b 0xe0 0x54 0x60 0x7a 0x90 0x57 0x38 0x0 0x1 0x72 0xa5 0x22 0xc 0x22 0x1d 0x22 0xc 0x0 0x11 0x0 0x0 0x0 0x0 0x5c 0x3 0x46 0x69 0x59 0x53 0x4b 0xf6 0x57 0x30 0x0 0x1b 0x0 0x1a 0x0 0x1a 0x22 0xc 0xff 0xf8 0x8 0x72 0x2a 0x83 0x0 0x0 0x1a 0xa6 0x0 0x0 0x0 0x0 0x0 0x0 0x0 0x0 0x0 0xa6 0x0 0xb 0x0 0x3 0x0 0x0 0x0 0x1 0xce 0x3a 0x0 0x1 0xce 0x3a 0x2 0x6e 0x2 0x6e 0x0 0x0 0x0 0x0 0x0 0x0 0x19 0x62 0x21 0xd8 0x0 0x0 0x20 0x82 0x24 0x1 0x35 0x53 0x2 0xdc 0xe 0x10 0x0 0x0 0x24 0x2e 0x0 0x18 0x0 0x21 0x0 0x0 0x0 0x0 0x0 0x0 0x0 0x0 0x0 0x0 0x0 0x0 0x0 0x0
2020-08-12 00:08:52,903 MainThread      DEBUG    factory        :266      Factory Response[ReadHoldingRegistersResponse: 3]
2020-08-12 00:08:52,920 MainThread      DEBUG    transaction    :383      Adding transaction 1
2020-08-12 00:08:52,924 MainThread      DEBUG    transaction    :394      Getting transaction 1
2020-08-12 00:08:52,936 MainThread      DEBUG    transaction    :193      Changing transaction state from 'PROCESSING REPLY' to 'TRANSACTION_COMPLETE'
2020-08-11 10:13:14,831 MainThread      DEBUG    transaction    :115      Current transaction state - IDLE
2020-08-11 10:13:14,835 MainThread      DEBUG    transaction    :120      Running transaction 1
2020-08-11 10:13:14,838 MainThread      DEBUG    transaction    :219      SEND: 0x0 0x1 0x0 0x0 0x0 0x6 0x1 0x3 0x0 0x0 0x0 0x50
2020-08-11 10:13:14,841 MainThread      DEBUG    sync           :75       New Transaction state 'SENDING'
2020-08-11 10:13:14,844 MainThread      DEBUG    transaction    :228      Changing transaction state from 'SENDING' to 'WAITING FOR REPLY'
2020-08-11 10:13:14,871 MainThread      DEBUG    transaction    :304      Changing transaction state from 'WAITING FOR REPLY' to 'PROCESSING REPLY'
2020-08-11 10:13:14,879 MainThread      DEBUG    transaction    :233      RECV: 0x0 0x1 0x0 0x0 0x0 0xa3 0x1 0x3 0xa0 0x0 0xb4 0x0 0x0 0x0 0x50 0x0 0x0 0x0 0x32 0x0 0x0 0x0 0x0 0x0 0x0 0x24 0xaa 0x24 0x9a 0x2b 0x29 0xc 0x27 0x0 0x9e 0x0 0x97 0x0 0xf8 0x5c 0x8 0x46 0x70 0x59 0x80 0x4b 0xe8 0x44 0x30 0x6b 0xc0 0x57 0x30 0x0 0x1 0x72 0xa5 0x24 0x8e 0x24 0xa8 0x24 0x94 0x2b 0x18 0x1 0xbb 0x1 0x1d 0x5c 0xa 0x46 0x73 0x59 0x7e 0x4b 0xef 0x57 0x34 0x0 0x24 0x0 0x20 0x0 0x20 0x24 0x8f 0x1 0xab 0x8 0x72 0x2a 0x83 0x0 0x0 0x1a 0xe8 0x0 0x0 0x0 0x0 0x0 0x0 0x0 0x0 0x0 0xa6 0x0 0x4 0x0 0x7 0x26 0x5e 0x0 0x1 0xd8 0x1e 0x0 0x1 0xd8 0x1e 0x2 0x7b 0x2 0x7b 0x1 0xfa 0x1 0x81 0x1 0x94 0x2b 0x18 0x30 0xea 0x0 0x0 0x22 0x73 0x28 0x7 0x35 0xcf 0x2 0x93 0xe 0x6 0x0 0x4 0x1b 0xec 0x0 0x16 0x0 0x23 0x0 0x0 0x0 0x0 0x0 0x0 0x0 0x0 0x2a 0x31 0x0 0x0 0x15 0xf9
2020-08-11 10:13:14,887 MainThread      DEBUG    socket_framer  :147      Processing: 0x0 0x1 0x0 0x0 0x0 0xa3 0x1 0x3 0xa0 0x0 0xb4 0x0 0x0 0x0 0x50 0x0 0x0 0x0 0x32 0x0 0x0 0x0 0x0 0x0 0x0 0x24 0xaa 0x24 0x9a 0x2b 0x29 0xc 0x27 0x0 0x9e 0x0 0x97 0x0 0xf8 0x5c 0x8 0x46 0x70 0x59 0x80 0x4b 0xe8 0x44 0x30 0x6b 0xc0 0x57 0x30 0x0 0x1 0x72 0xa5 0x24 0x8e 0x24 0xa8 0x24 0x94 0x2b 0x18 0x1 0xbb 0x1 0x1d 0x5c 0xa 0x46 0x73 0x59 0x7e 0x4b 0xef 0x57 0x34 0x0 0x24 0x0 0x20 0x0 0x20 0x24 0x8f 0x1 0xab 0x8 0x72 0x2a 0x83 0x0 0x0 0x1a 0xe8 0x0 0x0 0x0 0x0 0x0 0x0 0x0 0x0 0x0 0xa6 0x0 0x4 0x0 0x7 0x26 0x5e 0x0 0x1 0xd8 0x1e 0x0 0x1 0xd8 0x1e 0x2 0x7b 0x2 0x7b 0x1 0xfa 0x1 0x81 0x1 0x94 0x2b 0x18 0x30 0xea 0x0 0x0 0x22 0x73 0x28 0x7 0x35 0xcf 0x2 0x93 0xe 0x6 0x0 0x4 0x1b 0xec 0x0 0x16 0x0 0x23 0x0 0x0 0x0 0x0 0x0 0x0 0x0 0x0 0x2a 0x31 0x0 0x0 0x15 0xf9
2020-08-11 10:13:14,891 MainThread      DEBUG    factory        :266      Factory Response[ReadHoldingRegistersResponse: 3]
2020-08-11 10:13:14,897 MainThread      DEBUG    transaction    :383      Adding transaction 1
2020-08-11 10:13:14,900 MainThread      DEBUG    transaction    :394      Getting transaction 1
2020-08-11 10:13:14,903 MainThread      DEBUG    transaction    :193      Changing transaction state from 'PROCESSING REPLY' to 'TRANSACTION_COMPLETE'
2020-08-11 10:29:32,125 MainThread      DEBUG    transaction    :115      Current transaction state - IDLE
2020-08-11 10:29:32,129 MainThread      DEBUG    transaction    :120      Running transaction 1
2020-08-11 10:29:32,133 MainThread      DEBUG    transaction    :219      SEND: 0x0 0x1 0x0 0x0 0x0 0x6 0x1 0x3 0x0 0x0 0x0 0x50
2020-08-11 10:29:32,136 MainThread      DEBUG    sync           :75       New Transaction state 'SENDING'
2020-08-11 10:29:32,139 MainThread      DEBUG    transaction    :228      Changing transaction state from 'SENDING' to 'WAITING FOR REPLY'
2020-08-11 10:29:32,153 MainThread      DEBUG    transaction    :304      Changing transaction state from 'WAITING FOR REPLY' to 'PROCESSING REPLY'
2020-08-11 10:29:32,161 MainThread      DEBUG    transaction    :233      RECV: 0x0 0x1 0x0 0x0 0x0 0xa3 0x1 0x3 0xa0 0x0 0xb4 0x0 0x0 0x0 0x50 0x0 0x0 0x0 0x32 0x0 0x0 0x0 0x0 0x0 0x0 0x24 0x9e 0x24 0x8d 0x29 0x96 0xb 0xe9 0x0 0xd2 0x0 0x38 0x0 0x58 0x5c 0x8 0x46 0x70 0x59 0x78 0x4b 0xf0 0x45 0xd0 0x6c 0xf0 0x57 0x30 0x0 0x0 0x72 0xa5 0x24 0x86 0x24 0x9c 0x24 0x8d 0x29 0x8b 0x1 0x5c 0x0 0xf7 0x5c 0x9 0x46 0x73 0x59 0x7b 0x4b 0xf4 0x57 0x34 0x0 0x23 0x0 0x20 0x0 0x20 0x24 0x87 0x1 0x5c 0x8 0x72 0x2a 0x83 0x0 0x0 0x1a 0xe8 0x0 0x0 0x0 0x0 0x0 0x0 0x0 0x0 0x0 0xa6 0x0 0x8 0x0 0x5 0x27 0xa6 0x0 0x1 0xd8 0x21 0x0 0x1 0xd8 0x21 0x2 0x7b 0x2 0x7b 0x1 0x8d 0x1 0x3e 0x1 0x47 0x29 0x8b 0x30 0x7c 0x0 0x0 0x22 0x73 0x28 0x7 0x35 0xcf 0x2 0x96 0xe 0x10 0x0 0x4 0x1b 0xec 0x0 0x16 0x0 0x23 0x0 0x0 0x0 0x0 0x0 0x0 0x0 0x0 0x2a 0x31 0x0 0x0 0x15 0xfa
2020-08-11 10:29:32,169 MainThread      DEBUG    socket_framer  :147      Processing: 0x0 0x1 0x0 0x0 0x0 0xa3 0x1 0x3 0xa0 0x0 0xb4 0x0 0x0 0x0 0x50 0x0 0x0 0x0 0x32 0x0 0x0 0x0 0x0 0x0 0x0 0x24 0x9e 0x24 0x8d 0x29 0x96 0xb 0xe9 0x0 0xd2 0x0 0x38 0x0 0x58 0x5c 0x8 0x46 0x70 0x59 0x78 0x4b 0xf0 0x45 0xd0 0x6c 0xf0 0x57 0x30 0x0 0x0 0x72 0xa5 0x24 0x86 0x24 0x9c 0x24 0x8d 0x29 0x8b 0x1 0x5c 0x0 0xf7 0x5c 0x9 0x46 0x73 0x59 0x7b 0x4b 0xf4 0x57 0x34 0x0 0x23 0x0 0x20 0x0 0x20 0x24 0x87 0x1 0x5c 0x8 0x72 0x2a 0x83 0x0 0x0 0x1a 0xe8 0x0 0x0 0x0 0x0 0x0 0x0 0x0 0x0 0x0 0xa6 0x0 0x8 0x0 0x5 0x27 0xa6 0x0 0x1 0xd8 0x21 0x0 0x1 0xd8 0x21 0x2 0x7b 0x2 0x7b 0x1 0x8d 0x1 0x3e 0x1 0x47 0x29 0x8b 0x30 0x7c 0x0 0x0 0x22 0x73 0x28 0x7 0x35 0xcf 0x2 0x96 0xe 0x10 0x0 0x4 0x1b 0xec 0x0 0x16 0x0 0x23 0x0 0x0 0x0 0x0 0x0 0x0 0x0 0x0 0x2a 0x31 0x0 0x0 0x15 0xfa
2020-08-11 10:29:32,173 MainThread      DEBUG    factory        :266      Factory Response[ReadHoldingRegistersResponse: 3]
2020-08-11 10:29:32,181 MainThread      DEBUG    transaction    :383      Adding transaction 1
2020-08-11 10:29:32,184 MainThread      DEBUG    transaction    :394      Getting transaction 1
2020-08-11 10:29:32,186 MainThread      DEBUG    transaction    :193      Changing transaction state from 'PROCESSING REPLY' to 'TRANSACTION_COMPLETE'
2020-08-11 10:43:43,256 MainThread      DEBUG    transaction    :115      Current transaction state - IDLE
2020-08-11 10:43:43,260 MainThread      DEBUG    transaction    :120      Running transaction 1
2020-08-11 10:43:43,264 MainThread      DEBUG    transaction    :219      SEND: 0x0 0x1 0x0 0x0 0x0 0x6 0x1 0x3 0x0 0x0 0x0 0x50
2020-08-11 10:43:43,267 MainThread      DEBUG    sync           :75       New Transaction state 'SENDING'
2020-08-11 10:43:43,270 MainThread      DEBUG    transaction    :228      Changing transaction state from 'SENDING' to 'WAITING FOR REPLY'
2020-08-11 10:43:43,286 MainThread      DEBUG    transaction    :304      Changing transaction state from 'WAITING FOR REPLY' to 'PROCESSING REPLY'
2020-08-11 10:43:43,296 MainThread      DEBUG    transaction    :233      RECV: 0x0 0x1 0x0 0x0 0x0 0xa3 0x1 0x3 0xa0 0x0 0xb4 0x0 0x0 0x0 0x50 0x0 0x0 0x0 0x32 0x0 0x0 0x0 0x0 0x0 0x0 0x24 0x8d 0x24 0x80 0x2b 0x29 0xb 0x9a 0x0 0x8a 0x0 0x46 0x0 0x70 0x5c 0x10 0x46 0x68 0x59 0x80 0x4c 0x8 0x46 0xf0 0x6d 0xb0 0x57 0x30 0x0 0x0 0x72 0xa5 0x24 0x7e 0x24 0x96 0x24 0x83 0x2b 0x28 0x1 0x42 0x0 0xbf 0x5c 0x8 0x46 0x73 0x59 0x79 0x4b 0xf4 0x57 0x33 0x0 0x22 0x0 0x1f 0x0 0x1f 0x24 0x7e 0x1 0x41 0x8 0x72 0x2a 0x83 0x0 0x0 0x1a 0xe8 0x0 0x0 0x0 0x0 0x0 0x0 0x0 0x0 0x0 0xa6 0x0 0x8 0x0 0x5 0x27 0xbc 0x0 0x1 0xd8 0x23 0x0 0x1 0xd8 0x23 0x2 0x7b 0x2 0x7b 0x1 0x6f 0x1 0x1 0x1 0x11 0x2b 0x28 0x30 0x26 0x0 0x0 0x22 0x73 0x28 0x7 0x35 0xcf 0x2 0x98 0xe 0x1a 0x0 0x4 0x1b 0xec 0x0 0x16 0x0 0x23 0x0 0x0 0x0 0x0 0x0 0x0 0x0 0x0 0x2a 0x31 0x0 0x0 0x15 0xfa
2020-08-11 10:43:43,304 MainThread      DEBUG    socket_framer  :147      Processing: 0x0 0x1 0x0 0x0 0x0 0xa3 0x1 0x3 0xa0 0x0 0xb4 0x0 0x0 0x0 0x50 0x0 0x0 0x0 0x32 0x0 0x0 0x0 0x0 0x0 0x0 0x24 0x8d 0x24 0x80 0x2b 0x29 0xb 0x9a 0x0 0x8a 0x0 0x46 0x0 0x70 0x5c 0x10 0x46 0x68 0x59 0x80 0x4c 0x8 0x46 0xf0 0x6d 0xb0 0x57 0x30 0x0 0x0 0x72 0xa5 0x24 0x7e 0x24 0x96 0x24 0x83 0x2b 0x28 0x1 0x42 0x0 0xbf 0x5c 0x8 0x46 0x73 0x59 0x79 0x4b 0xf4 0x57 0x33 0x0 0x22 0x0 0x1f 0x0 0x1f 0x24 0x7e 0x1 0x41 0x8 0x72 0x2a 0x83 0x0 0x0 0x1a 0xe8 0x0 0x0 0x0 0x0 0x0 0x0 0x0 0x0 0x0 0xa6 0x0 0x8 0x0 0x5 0x27 0xbc 0x0 0x1 0xd8 0x23 0x0 0x1 0xd8 0x23 0x2 0x7b 0x2 0x7b 0x1 0x6f 0x1 0x1 0x1 0x11 0x2b 0x28 0x30 0x26 0x0 0x0 0x22 0x73 0x28 0x7 0x35 0xcf 0x2 0x98 0xe 0x1a 0x0 0x4 0x1b 0xec 0x0 0x16 0x0 0x23 0x0 0x0 0x0 0x0 0x0 0x0 0x0 0x0 0x2a 0x31 0x0 0x0 0x15 0xfa
2020-08-11 10:43:43,307 MainThread      DEBUG    factory        :266      Factory Response[ReadHoldingRegistersResponse: 3]
2020-08-11 10:43:43,314 MainThread      DEBUG    transaction    :383      Adding transaction 1
2020-08-11 10:43:43,317 MainThread      DEBUG    transaction    :394      Getting transaction 1
2020-08-11 10:43:43,320 MainThread      DEBUG    transaction    :193      Changing transaction state from 'PROCESSING REPLY' to 'TRANSACTION_COMPLETE'
2020-08-14 18:50:38,585 MainThread      DEBUG    transaction    :115      Current transaction state - IDLE
2020-08-14 18:50:38,588 MainThread      DEBUG    transaction    :120      Running transaction 1
2020-08-14 18:50:38,593 MainThread      DEBUG    transaction    :219      SEND: 0x0 0x1 0x0 0x0 0x0 0x6 0x1 0x3 0x0 0x0 0x0 0x50
2020-08-14 18:50:38,596 MainThread      DEBUG    sync           :75       New Transaction state 'SENDING'
2020-08-14 18:50:38,599 MainThread      DEBUG    transaction    :228      Changing transaction state from 'SENDING' to 'WAITING FOR REPLY'
2020-08-14 18:50:38,615 MainThread      DEBUG    transaction    :304      Changing transaction state from 'WAITING FOR REPLY' to 'PROCESSING REPLY'
2020-08-14 18:50:38,626 MainThread      DEBUG    transaction    :233      RECV: 0x0 0x1 0x0 0x0 0x0 0xa3 0x1 0x3 0xa0 0x0 0xb4 0x0 0x0 0x0 0x50 0x0 0x0 0x0 0x32 0x0 0x0 0x0 0x0 0x0 0x0 0x24 0x8d 0x24 0x7c 0x2a 0xdf 0xb 0x6f 0x0 0x7a 0x0 0x3f 0x0 0x6b 0x5c 0x8 0x46 0x70 0x59 0x80 0x4b 0xf0 0x48 0x10 0x6e 0x70 0x57 0x30 0x0 0x1 0x72 0xa5 0x24 0x74 0x24 0x84 0x24 0x7d 0x2a 0xd1 0x1 0x1d 0x0 0xa2 0x5c 0x8 0x46 0x71 0x59 0x78 0x4b 0xf4 0x57 0x33 0x0 0x22 0x0 0x1f 0x0 0x1f 0x24 0x74 0x1 0x1e 0x8 0x72 0x2a 0x83 0x0 0x0 0x1a 0xe8 0x0 0x0 0x0 0x0 0x0 0x0 0x0 0x0 0x0 0xa6 0x0 0x8 0x0 0x5 0x27 0xbc 0x0 0x1 0xd8 0x25 0x0 0x1 0xd8 0x25 0x2 0x7b 0x2 0x7b 0x1 0x44 0x0 0xd7 0x0 0xe6 0x2a 0xd1 0x2f 0xd2 0x0 0x0 0x22 0x73 0x28 0x7 0x35 0xcf 0x2 0x9a 0xe 0x24 0x0 0x4 0x1b 0xec 0x0 0x16 0x0 0x23 0x0 0x0 0x0 0x0 0x0 0x0 0x0 0x0 0x2a 0x31 0x0 0x0 0x15 0xfa
2020-08-14 18:50:38,635 MainThread      DEBUG    socket_framer  :147      Processing: 0x0 0x1 0x0 0x0 0x0 0xa3 0x1 0x3 0xa0 0x0 0xb4 0x0 0x0 0x0 0x50 0x0 0x0 0x0 0x32 0x0 0x0 0x0 0x0 0x0 0x0 0x24 0x8d 0x24 0x7c 0x2a 0xdf 0xb 0x6f 0x0 0x7a 0x0 0x3f 0x0 0x6b 0x5c 0x8 0x46 0x70 0x59 0x80 0x4b 0xf0 0x48 0x10 0x6e 0x70 0x57 0x30 0x0 0x1 0x72 0xa5 0x24 0x74 0x24 0x84 0x24 0x7d 0x2a 0xd1 0x1 0x1d 0x0 0xa2 0x5c 0x8 0x46 0x71 0x59 0x78 0x4b 0xf4 0x57 0x33 0x0 0x22 0x0 0x1f 0x0 0x1f 0x24 0x74 0x1 0x1e 0x8 0x72 0x2a 0x83 0x0 0x0 0x1a 0xe8 0x0 0x0 0x0 0x0 0x0 0x0 0x0 0x0 0x0 0xa6 0x0 0x8 0x0 0x5 0x27 0xbc 0x0 0x1 0xd8 0x25 0x0 0x1 0xd8 0x25 0x2 0x7b 0x2 0x7b 0x1 0x44 0x0 0xd7 0x0 0xe6 0x2a 0xd1 0x2f 0xd2 0x0 0x0 0x22 0x73 0x28 0x7 0x35 0xcf 0x2 0x9a 0xe 0x24 0x0 0x4 0x1b 0xec 0x0 0x16 0x0 0x23 0x0 0x0 0x0 0x0 0x0 0x0 0x0 0x0 0x2a 0x31 0x0 0x0 0x15 0xfa
2020-08-14 18:50:38,639 MainThread      DEBUG    factory        :266      Factory Response[ReadHoldingRegistersResponse: 3]
2020-08-14 18:50:38,650 MainThread      DEBUG    transaction    :383      Adding transaction 1
2020-08-14 18:50:38,655 MainThread      DEBUG    transaction    :394      Getting transaction 1
2020-08-14 18:50:38,658 MainThread      DEBUG    transaction    :193      Changing transaction state from 'PROCESSING REPLY' to 'TRANSACTION_COMPLETE'
2020-08-14 18:52:32,668 MainThread      DEBUG    transaction    :115      Current transaction state - IDLE
2020-08-14 18:52:32,682 MainThread      DEBUG    transaction    :120      Running transaction 1
2020-08-14 18:52:32,686 MainThread      DEBUG    transaction    :219      SEND: 0x0 0x1 0x0 0x0 0x0 0x6 0x1 0x3 0x0 0x0 0x0 0x50
2020-08-14 18:52:32,710 MainThread      DEBUG    sync           :75       New Transaction state 'SENDING'
2020-08-14 18:52:32,713 MainThread      DEBUG    transaction    :228      Changing transaction state from 'SENDING' to 'WAITING FOR REPLY'
2020-08-14 18:52:32,729 MainThread      DEBUG    transaction    :304      Changing transaction state from 'WAITING FOR REPLY' to 'PROCESSING REPLY'
2020-08-14 18:52:32,772 MainThread      DEBUG    transaction    :233      RECV: 0x0 0x1 0x0 0x0 0x0 0xa3 0x1 0x3 0xa0 0x0 0xb4 0x0 0x0 0x0 0x50 0x0 0x0 0x0 0x32 0x0 0x0 0x0 0x0 0x0 0x0 0x24 0x81 0x24 0x77 0x28 0xe9 0xb 0x7a 0x0 0x91 0x0 0x29 0x0 0x4b 0x5c 0x8 0x46 0x68 0x59 0x70 0x4b 0xf8 0x48 0x20 0x6e 0x90 0x57 0x30 0x0 0x1 0x72 0xa5 0x24 0x74 0x24 0x89 0x24 0x78 0x28 0xd4 0x0 0xf4 0x0 0xab 0x5c 0x9 0x46 0x72 0x59 0x71 0x4b 0xf7 0x57 0x34 0x0 0x22 0x0 0x1f 0x0 0x1f 0x24 0x73 0x1 0x1 0x8 0x72 0x2a 0x83 0x0 0x0 0x1a 0xe8 0x0 0x0 0x0 0x0 0x0 0x0 0x0 0x0 0x0 0xa6 0x0 0x8 0x0 0x5 0x27 0xbc 0x0 0x1 0xd8 0x25 0x0 0x1 0xd8 0x25 0x2 0x7b 0x2 0x7b 0x1 0x15 0x0 0xd8 0x0 0xde 0x28 0xd4 0x2f 0xbb 0x0 0x0 0x22 0x73 0x28 0x7 0x35 0xcf 0x2 0x9a 0xe 0x24 0x0 0x4 0x1b 0xec 0x0 0x16 0x0 0x23 0x0 0x0 0x0 0x0 0x0 0x0 0x0 0x0 0x2a 0x31 0x0 0x0 0x15 0xfa
2020-08-14 18:52:32,801 MainThread      DEBUG    socket_framer  :147      Processing: 0x0 0x1 0x0 0x0 0x0 0xa3 0x1 0x3 0xa0 0x0 0xb4 0x0 0x0 0x0 0x50 0x0 0x0 0x0 0x32 0x0 0x0 0x0 0x0 0x0 0x0 0x24 0x81 0x24 0x77 0x28 0xe9 0xb 0x7a 0x0 0x91 0x0 0x29 0x0 0x4b 0x5c 0x8 0x46 0x68 0x59 0x70 0x4b 0xf8 0x48 0x20 0x6e 0x90 0x57 0x30 0x0 0x1 0x72 0xa5 0x24 0x74 0x24 0x89 0x24 0x78 0x28 0xd4 0x0 0xf4 0x0 0xab 0x5c 0x9 0x46 0x72 0x59 0x71 0x4b 0xf7 0x57 0x34 0x0 0x22 0x0 0x1f 0x0 0x1f 0x24 0x73 0x1 0x1 0x8 0x72 0x2a 0x83 0x0 0x0 0x1a 0xe8 0x0 0x0 0x0 0x0 0x0 0x0 0x0 0x0 0x0 0xa6 0x0 0x8 0x0 0x5 0x27 0xbc 0x0 0x1 0xd8 0x25 0x0 0x1 0xd8 0x25 0x2 0x7b 0x2 0x7b 0x1 0x15 0x0 0xd8 0x0 0xde 0x28 0xd4 0x2f 0xbb 0x0 0x0 0x22 0x73 0x28 0x7 0x35 0xcf 0x2 0x9a 0xe 0x24 0x0 0x4 0x1b 0xec 0x0 0x16 0x0 0x23 0x0 0x0 0x0 0x0 0x0 0x0 0x0 0x0 0x2a 0x31 0x0 0x0 0x15 0xfa
2020-08-14 18:52:32,807 MainThread      DEBUG    factory        :266      Factory Response[ReadHoldingRegistersResponse: 3]
2020-08-14 18:52:32,824 MainThread      DEBUG    transaction    :383      Adding transaction 1
2020-08-14 18:52:32,827 MainThread      DEBUG    transaction    :394      Getting transaction 1
2020-08-14 18:52:32,831 MainThread      DEBUG    transaction    :193      Changing transaction state from 'PROCESSING REPLY' to 'TRANSACTION_COMPLETE'
2020-08-14 18:54:06,048 MainThread      DEBUG    transaction    :115      Current transaction state - IDLE
2020-08-14 18:54:06,053 MainThread      DEBUG    transaction    :120      Running transaction 1
2020-08-14 18:54:06,056 MainThread      DEBUG    transaction    :219      SEND: 0x0 0x1 0x0 0x0 0x0 0x6 0x1 0x3 0x0 0x0 0x0 0x50
2020-08-14 18:54:06,059 MainThread      DEBUG    sync           :75       New Transaction state 'SENDING'
2020-08-14 18:54:06,064 MainThread      DEBUG    transaction    :228      Changing transaction state from 'SENDING' to 'WAITING FOR REPLY'
2020-08-14 18:54:06,081 MainThread      DEBUG    transaction    :304      Changing transaction state from 'WAITING FOR REPLY' to 'PROCESSING REPLY'
2020-08-14 18:54:06,091 MainThread      DEBUG    transaction    :233      RECV: 0x0 0x1 0x0 0x0 0x0 0xa3 0x1 0x3 0xa0 0x0 0xb4 0x0 0x0 0x0 0x50 0x0 0x0 0x0 0x32 0x0 0x0 0x0 0x0 0x0 0x0 0x24 0x75 0x24 0x5d 0x28 0xe1 0xb 0x76 0x0 0x7b 0x0 0x26 0x0 0x24 0x5c 0x8 0x46 0x70 0x59 0x78 0x4b 0xe8 0x48 0x40 0x6e 0xb0 0x57 0x30 0x0 0x1 0x72 0xa5 0x24 0x73 0x24 0x6b 0x24 0x5e 0x28 0xd4 0x0 0xf0 0x0 0xa8 0x5c 0x9 0x46 0x72 0x59 0x78 0x4b 0xf5 0x57 0x34 0x0 0x22 0x0 0x1f 0x0 0x1f 0x24 0x73 0x0 0xf3 0x8 0x72 0x2a 0x83 0x0 0x0 0x1a 0xe8 0x0 0x0 0x0 0x0 0x0 0x0 0x0 0x0 0x0 0xa6 0x0 0x8 0x0 0x5 0x27 0xbc 0x0 0x1 0xd8 0x25 0x0 0x1 0xd8 0x25 0x2 0x7b 0x2 0x7b 0x1 0x11 0x0 0xd6 0x0 0xde 0x28 0xd4 0x2f 0xbb 0x0 0x0 0x22 0x73 0x28 0x7 0x35 0xcf 0x2 0x9a 0xe 0x24 0x0 0x4 0x1b 0xec 0x0 0x16 0x0 0x23 0x0 0x0 0x0 0x0 0x0 0x0 0x0 0x0 0x2a 0x31 0x0 0x0 0x15 0xfa
2020-08-14 18:54:06,103 MainThread      DEBUG    socket_framer  :147      Processing: 0x0 0x1 0x0 0x0 0x0 0xa3 0x1 0x3 0xa0 0x0 0xb4 0x0 0x0 0x0 0x50 0x0 0x0 0x0 0x32 0x0 0x0 0x0 0x0 0x0 0x0 0x24 0x75 0x24 0x5d 0x28 0xe1 0xb 0x76 0x0 0x7b 0x0 0x26 0x0 0x24 0x5c 0x8 0x46 0x70 0x59 0x78 0x4b 0xe8 0x48 0x40 0x6e 0xb0 0x57 0x30 0x0 0x1 0x72 0xa5 0x24 0x73 0x24 0x6b 0x24 0x5e 0x28 0xd4 0x0 0xf0 0x0 0xa8 0x5c 0x9 0x46 0x72 0x59 0x78 0x4b 0xf5 0x57 0x34 0x0 0x22 0x0 0x1f 0x0 0x1f 0x24 0x73 0x0 0xf3 0x8 0x72 0x2a 0x83 0x0 0x0 0x1a 0xe8 0x0 0x0 0x0 0x0 0x0 0x0 0x0 0x0 0x0 0xa6 0x0 0x8 0x0 0x5 0x27 0xbc 0x0 0x1 0xd8 0x25 0x0 0x1 0xd8 0x25 0x2 0x7b 0x2 0x7b 0x1 0x11 0x0 0xd6 0x0 0xde 0x28 0xd4 0x2f 0xbb 0x0 0x0 0x22 0x73 0x28 0x7 0x35 0xcf 0x2 0x9a 0xe 0x24 0x0 0x4 0x1b 0xec 0x0 0x16 0x0 0x23 0x0 0x0 0x0 0x0 0x0 0x0 0x0 0x0 0x2a 0x31 0x0 0x0 0x15 0xfa
2020-08-14 18:54:06,106 MainThread      DEBUG    factory        :266      Factory Response[ReadHoldingRegistersResponse: 3]
2020-08-14 18:54:06,115 MainThread      DEBUG    transaction    :383      Adding transaction 1
2020-08-14 18:54:06,118 MainThread      DEBUG    transaction    :394      Getting transaction 1
2020-08-14 18:54:06,121 MainThread      DEBUG    transaction    :193      Changing transaction state from 'PROCESSING REPLY' to 'TRANSACTION_COMPLETE'
2020-08-14 19:01:39,859 MainThread      DEBUG    transaction    :115      Current transaction state - IDLE
2020-08-14 19:01:39,863 MainThread      DEBUG    transaction    :120      Running transaction 1
2020-08-14 19:01:39,869 MainThread      DEBUG    transaction    :219      SEND: 0x0 0x1 0x0 0x0 0x0 0x6 0x1 0x3 0x0 0x0 0x0 0x50
2020-08-14 19:01:39,876 MainThread      DEBUG    sync           :75       New Transaction state 'SENDING'
2020-08-14 19:01:39,881 MainThread      DEBUG    transaction    :228      Changing transaction state from 'SENDING' to 'WAITING FOR REPLY'
2020-08-14 19:01:39,900 MainThread      DEBUG    transaction    :304      Changing transaction state from 'WAITING FOR REPLY' to 'PROCESSING REPLY'
2020-08-14 19:01:39,912 MainThread      DEBUG    transaction    :233      RECV: 0x0 0x1 0x0 0x0 0x0 0xa3 0x1 0x3 0xa0 0x0 0xb4 0x0 0x0 0x0 0x50 0x0 0x0 0x0 0x32 0x0 0x0 0x0 0x0 0x0 0x0 0x24 0x89 0x24 0x73 0x28 0xa7 0xb 0x5d 0x0 0x75 0x0 0x2d 0x0 0x42 0x5c 0x8 0x46 0x70 0x59 0x78 0x4b 0xf0 0x48 0xb0 0x6f 0x20 0x57 0x38 0x0 0x0 0x72 0xa5 0x24 0x70 0x24 0x7a 0x24 0x76 0x28 0x94 0x0 0xf5 0x0 0x7d 0x5c 0x8 0x46 0x72 0x59 0x76 0x4b 0xf4 0x57 0x33 0x0 0x21 0x0 0x1f 0x0 0x1f 0x24 0x70 0x0 0xe8 0x8 0x72 0x2a 0x83 0x0 0x0 0x1a 0xe9 0x0 0x0 0x0 0x0 0x0 0x0 0x0 0x0 0x0 0xa6 0x0 0x8 0x0 0x5 0x27 0xbc 0x0 0x1 0xd8 0x26 0x0 0x1 0xd8 0x26 0x2 0x7b 0x2 0x7b 0x1 0x16 0x0 0x9e 0x0 0xa2 0x28 0x94 0x2e 0xf1 0x0 0x0 0x22 0x73 0x28 0x7 0x35 0xcf 0x2 0x9b 0xe 0x24 0x0 0x4 0x1b 0xec 0x0 0x16 0x0 0x23 0x0 0x0 0x0 0x0 0x0 0x0 0x0 0x0 0x2a 0x31 0x0 0x0 0x15 0xfa
2020-08-14 19:01:39,923 MainThread      DEBUG    socket_framer  :147      Processing: 0x0 0x1 0x0 0x0 0x0 0xa3 0x1 0x3 0xa0 0x0 0xb4 0x0 0x0 0x0 0x50 0x0 0x0 0x0 0x32 0x0 0x0 0x0 0x0 0x0 0x0 0x24 0x89 0x24 0x73 0x28 0xa7 0xb 0x5d 0x0 0x75 0x0 0x2d 0x0 0x42 0x5c 0x8 0x46 0x70 0x59 0x78 0x4b 0xf0 0x48 0xb0 0x6f 0x20 0x57 0x38 0x0 0x0 0x72 0xa5 0x24 0x70 0x24 0x7a 0x24 0x76 0x28 0x94 0x0 0xf5 0x0 0x7d 0x5c 0x8 0x46 0x72 0x59 0x76 0x4b 0xf4 0x57 0x33 0x0 0x21 0x0 0x1f 0x0 0x1f 0x24 0x70 0x0 0xe8 0x8 0x72 0x2a 0x83 0x0 0x0 0x1a 0xe9 0x0 0x0 0x0 0x0 0x0 0x0 0x0 0x0 0x0 0xa6 0x0 0x8 0x0 0x5 0x27 0xbc 0x0 0x1 0xd8 0x26 0x0 0x1 0xd8 0x26 0x2 0x7b 0x2 0x7b 0x1 0x16 0x0 0x9e 0x0 0xa2 0x28 0x94 0x2e 0xf1 0x0 0x0 0x22 0x73 0x28 0x7 0x35 0xcf 0x2 0x9b 0xe 0x24 0x0 0x4 0x1b 0xec 0x0 0x16 0x0 0x23 0x0 0x0 0x0 0x0 0x0 0x0 0x0 0x0 0x2a 0x31 0x0 0x0 0x15 0xfa
2020-08-14 19:01:39,930 MainThread      DEBUG    factory        :266      Factory Response[ReadHoldingRegistersResponse: 3]
2020-08-14 19:01:39,941 MainThread      DEBUG    transaction    :383      Adding transaction 1
2020-08-14 19:01:39,944 MainThread      DEBUG    transaction    :394      Getting transaction 1
2020-08-14 19:01:39,947 MainThread      DEBUG    transaction    :193      Changing transaction state from 'PROCESSING REPLY' to 'TRANSACTION_COMPLETE'
2020-08-14 19:02:46,289 MainThread      DEBUG    transaction    :115      Current transaction state - IDLE
2020-08-14 19:02:46,294 MainThread      DEBUG    transaction    :120      Running transaction 1
2020-08-14 19:02:46,300 MainThread      DEBUG    transaction    :219      SEND: 0x0 0x1 0x0 0x0 0x0 0x6 0x1 0x3 0x0 0x0 0x0 0x50
2020-08-14 19:02:46,303 MainThread      DEBUG    sync           :75       New Transaction state 'SENDING'
2020-08-14 19:02:46,306 MainThread      DEBUG    transaction    :228      Changing transaction state from 'SENDING' to 'WAITING FOR REPLY'
2020-08-14 19:02:46,322 MainThread      DEBUG    transaction    :304      Changing transaction state from 'WAITING FOR REPLY' to 'PROCESSING REPLY'
2020-08-14 19:02:46,330 MainThread      DEBUG    transaction    :233      RECV: 0x0 0x1 0x0 0x0 0x0 0xa3 0x1 0x3 0xa0 0x0 0xb4 0x0 0x0 0x0 0x50 0x0 0x0 0x0 0x32 0x0 0x0 0x0 0x0 0x0 0x0 0x24 0x8d 0x24 0x7c 0x28 0x9f 0xb 0x5c 0x0 0x79 0x0 0x29 0x0 0x59 0x5c 0x8 0x46 0x70 0x59 0x70 0x4b 0xf0 0x48 0xc0 0x6f 0x20 0x57 0x28 0x0 0x1 0x72 0xa5 0x24 0x6f 0x24 0x88 0x24 0x79 0x28 0x94 0x0 0xee 0x0 0x7b 0x5c 0x7 0x46 0x72 0x59 0x6d 0x4b 0xf7 0x57 0x32 0x0 0x21 0x0 0x1f 0x0 0x1f 0x24 0x6f 0x0 0xee 0x8 0x72 0x2a 0x83 0x0 0x0 0x1a 0xe9 0x0 0x0 0x0 0x0 0x0 0x0 0x0 0x0 0x0 0xa6 0x0 0x8 0x0 0x5 0x27 0xbc 0x0 0x1 0xd8 0x26 0x0 0x1 0xd8 0x26 0x2 0x7b 0x2 0x7b 0x1 0xe 0x0 0x9e 0x0 0xa2 0x28 0x94 0x2e 0xf1 0x0 0x0 0x22 0x73 0x28 0x7 0x35 0xcf 0x2 0x9b 0xe 0x24 0x0 0x4 0x1b 0xec 0x0 0x16 0x0 0x23 0x0 0x0 0x0 0x0 0x0 0x0 0x0 0x0 0x2a 0x31 0x0 0x0 0x15 0xfa
2020-08-14 19:02:46,342 MainThread      DEBUG    socket_framer  :147      Processing: 0x0 0x1 0x0 0x0 0x0 0xa3 0x1 0x3 0xa0 0x0 0xb4 0x0 0x0 0x0 0x50 0x0 0x0 0x0 0x32 0x0 0x0 0x0 0x0 0x0 0x0 0x24 0x8d 0x24 0x7c 0x28 0x9f 0xb 0x5c 0x0 0x79 0x0 0x29 0x0 0x59 0x5c 0x8 0x46 0x70 0x59 0x70 0x4b 0xf0 0x48 0xc0 0x6f 0x20 0x57 0x28 0x0 0x1 0x72 0xa5 0x24 0x6f 0x24 0x88 0x24 0x79 0x28 0x94 0x0 0xee 0x0 0x7b 0x5c 0x7 0x46 0x72 0x59 0x6d 0x4b 0xf7 0x57 0x32 0x0 0x21 0x0 0x1f 0x0 0x1f 0x24 0x6f 0x0 0xee 0x8 0x72 0x2a 0x83 0x0 0x0 0x1a 0xe9 0x0 0x0 0x0 0x0 0x0 0x0 0x0 0x0 0x0 0xa6 0x0 0x8 0x0 0x5 0x27 0xbc 0x0 0x1 0xd8 0x26 0x0 0x1 0xd8 0x26 0x2 0x7b 0x2 0x7b 0x1 0xe 0x0 0x9e 0x0 0xa2 0x28 0x94 0x2e 0xf1 0x0 0x0 0x22 0x73 0x28 0x7 0x35 0xcf 0x2 0x9b 0xe 0x24 0x0 0x4 0x1b 0xec 0x0 0x16 0x0 0x23 0x0 0x0 0x0 0x0 0x0 0x0 0x0 0x0 0x2a 0x31 0x0 0x0 0x15 0xfa
2020-08-14 19:02:46,346 MainThread      DEBUG    factory        :266      Factory Response[ReadHoldingRegistersResponse: 3]
2020-08-14 19:02:46,355 MainThread      DEBUG    transaction    :383      Adding transaction 1
2020-08-14 19:02:46,358 MainThread      DEBUG    transaction    :394      Getting transaction 1
2020-08-14 19:02:46,362 MainThread      DEBUG    transaction    :193      Changing transaction state from 'PROCESSING REPLY' to 'TRANSACTION_COMPLETE'
2020-08-14 19:03:38,047 MainThread      DEBUG    transaction    :115      Current transaction state - IDLE
2020-08-14 19:03:38,051 MainThread      DEBUG    transaction    :120      Running transaction 1
2020-08-14 19:03:38,057 MainThread      DEBUG    transaction    :219      SEND: 0x0 0x1 0x0 0x0 0x0 0x6 0x1 0x3 0x0 0x0 0x0 0x50
2020-08-14 19:03:38,060 MainThread      DEBUG    sync           :75       New Transaction state 'SENDING'
2020-08-14 19:03:38,067 MainThread      DEBUG    transaction    :228      Changing transaction state from 'SENDING' to 'WAITING FOR REPLY'
2020-08-14 19:03:38,083 MainThread      DEBUG    transaction    :304      Changing transaction state from 'WAITING FOR REPLY' to 'PROCESSING REPLY'
2020-08-14 19:03:38,097 MainThread      DEBUG    transaction    :233      RECV: 0x0 0x1 0x0 0x0 0x0 0xa3 0x1 0x3 0xa0 0x0 0xb4 0x0 0x0 0x0 0x50 0x0 0x0 0x0 0x32 0x0 0x0 0x0 0x0 0x0 0x0 0x24 0x5d 0x24 0x48 0x28 0x76 0xb 0x54 0x0 0x73 0x0 0x28 0x0 0x59 0x5c 0x8 0x46 0x70 0x59 0x78 0x4b 0xf8 0x48 0xd0 0x6f 0x40 0x57 0x30 0x0 0x1 0x72 0xa5 0x24 0x6f 0x24 0x53 0x24 0x4c 0x28 0x94 0x0 0xec 0x0 0x78 0x5c 0x7 0x46 0x71 0x59 0x76 0x4b 0xf4 0x57 0x32 0x0 0x21 0x0 0x1f 0x0 0x1f 0x24 0x6f 0x0 0xec 0x8 0x72 0x2a 0x83 0x0 0x0 0x1a 0xe9 0x0 0x0 0x0 0x0 0x0 0x0 0x0 0x0 0x0 0xa6 0x0 0x8 0x0 0x5 0x27 0xbc 0x0 0x1 0xd8 0x26 0x0 0x1 0xd8 0x26 0x2 0x7b 0x2 0x7b 0x1 0xc 0x0 0x99 0x0 0xa2 0x28 0x94 0x2e 0xf1 0x0 0x0 0x22 0x73 0x28 0x7 0x35 0xcf 0x2 0x9b 0xe 0x24 0x0 0x4 0x1b 0xec 0x0 0x16 0x0 0x23 0x0 0x0 0x0 0x0 0x0 0x0 0x0 0x0 0x2a 0x31 0x0 0x0 0x15 0xfa
2020-08-14 19:03:38,107 MainThread      DEBUG    socket_framer  :147      Processing: 0x0 0x1 0x0 0x0 0x0 0xa3 0x1 0x3 0xa0 0x0 0xb4 0x0 0x0 0x0 0x50 0x0 0x0 0x0 0x32 0x0 0x0 0x0 0x0 0x0 0x0 0x24 0x5d 0x24 0x48 0x28 0x76 0xb 0x54 0x0 0x73 0x0 0x28 0x0 0x59 0x5c 0x8 0x46 0x70 0x59 0x78 0x4b 0xf8 0x48 0xd0 0x6f 0x40 0x57 0x30 0x0 0x1 0x72 0xa5 0x24 0x6f 0x24 0x53 0x24 0x4c 0x28 0x94 0x0 0xec 0x0 0x78 0x5c 0x7 0x46 0x71 0x59 0x76 0x4b 0xf4 0x57 0x32 0x0 0x21 0x0 0x1f 0x0 0x1f 0x24 0x6f 0x0 0xec 0x8 0x72 0x2a 0x83 0x0 0x0 0x1a 0xe9 0x0 0x0 0x0 0x0 0x0 0x0 0x0 0x0 0x0 0xa6 0x0 0x8 0x0 0x5 0x27 0xbc 0x0 0x1 0xd8 0x26 0x0 0x1 0xd8 0x26 0x2 0x7b 0x2 0x7b 0x1 0xc 0x0 0x99 0x0 0xa2 0x28 0x94 0x2e 0xf1 0x0 0x0 0x22 0x73 0x28 0x7 0x35 0xcf 0x2 0x9b 0xe 0x24 0x0 0x4 0x1b 0xec 0x0 0x16 0x0 0x23 0x0 0x0 0x0 0x0 0x0 0x0 0x0 0x0 0x2a 0x31 0x0 0x0 0x15 0xfa
2020-08-14 19:03:38,110 MainThread      DEBUG    factory        :266      Factory Response[ReadHoldingRegistersResponse: 3]
2020-08-14 19:03:38,119 MainThread      DEBUG    transaction    :383      Adding transaction 1
2020-08-14 19:03:38,122 MainThread      DEBUG    transaction    :394      Getting transaction 1
2020-08-14 19:03:38,125 MainThread      DEBUG    transaction    :193      Changing transaction state from 'PROCESSING REPLY' to 'TRANSACTION_COMPLETE'
2020-08-14 19:04:02,697 MainThread      DEBUG    transaction    :115      Current transaction state - IDLE
2020-08-14 19:04:02,701 MainThread      DEBUG    transaction    :120      Running transaction 1
2020-08-14 19:04:02,709 MainThread      DEBUG    transaction    :219      SEND: 0x0 0x1 0x0 0x0 0x0 0x6 0x1 0x3 0x0 0x0 0x0 0x50
2020-08-14 19:04:02,713 MainThread      DEBUG    sync           :75       New Transaction state 'SENDING'
2020-08-14 19:04:02,718 MainThread      DEBUG    transaction    :228      Changing transaction state from 'SENDING' to 'WAITING FOR REPLY'
2020-08-14 19:04:02,734 MainThread      DEBUG    transaction    :304      Changing transaction state from 'WAITING FOR REPLY' to 'PROCESSING REPLY'
2020-08-14 19:04:02,744 MainThread      DEBUG    transaction    :233      RECV: 0x0 0x1 0x0 0x0 0x0 0xa3 0x1 0x3 0xa0 0x0 0xb4 0x0 0x0 0x0 0x50 0x0 0x0 0x0 0x32 0x0 0x0 0x0 0x0 0x0 0x0 0x24 0x89 0x24 0x77 0x28 0xa7 0xb 0x55 0x0 0x62 0x0 0x25 0x0 0x58 0x5c 0x0 0x46 0x70 0x59 0x70 0x4c 0x0 0x48 0xd0 0x6f 0x20 0x57 0x38 0x0 0x1 0x72 0xa5 0x24 0x6f 0x24 0x78 0x24 0x75 0x28 0x94 0x0 0xec 0x0 0x77 0x5c 0x6 0x46 0x70 0x59 0x70 0x4b 0xf4 0x57 0x31 0x0 0x21 0x0 0x1f 0x0 0x1f 0x24 0x6f 0x0 0xec 0x8 0x72 0x2a 0x83 0x0 0x0 0x1a 0xe9 0x0 0x0 0x0 0x0 0x0 0x0 0x0 0x0 0x0 0xa6 0x0 0x8 0x0 0x5 0x27 0xbc 0x0 0x1 0xd8 0x26 0x0 0x1 0xd8 0x26 0x2 0x7b 0x2 0x7b 0x1 0xc 0x0 0x98 0x0 0xa2 0x28 0x94 0x2e 0xf1 0x0 0x0 0x22 0x73 0x28 0x7 0x35 0xcf 0x2 0x9b 0xe 0x24 0x0 0x4 0x1b 0xec 0x0 0x16 0x0 0x23 0x0 0x0 0x0 0x0 0x0 0x0 0x0 0x0 0x2a 0x31 0x0 0x0 0x15 0xfa
2020-08-14 19:04:02,755 MainThread      DEBUG    socket_framer  :147      Processing: 0x0 0x1 0x0 0x0 0x0 0xa3 0x1 0x3 0xa0 0x0 0xb4 0x0 0x0 0x0 0x50 0x0 0x0 0x0 0x32 0x0 0x0 0x0 0x0 0x0 0x0 0x24 0x89 0x24 0x77 0x28 0xa7 0xb 0x55 0x0 0x62 0x0 0x25 0x0 0x58 0x5c 0x0 0x46 0x70 0x59 0x70 0x4c 0x0 0x48 0xd0 0x6f 0x20 0x57 0x38 0x0 0x1 0x72 0xa5 0x24 0x6f 0x24 0x78 0x24 0x75 0x28 0x94 0x0 0xec 0x0 0x77 0x5c 0x6 0x46 0x70 0x59 0x70 0x4b 0xf4 0x57 0x31 0x0 0x21 0x0 0x1f 0x0 0x1f 0x24 0x6f 0x0 0xec 0x8 0x72 0x2a 0x83 0x0 0x0 0x1a 0xe9 0x0 0x0 0x0 0x0 0x0 0x0 0x0 0x0 0x0 0xa6 0x0 0x8 0x0 0x5 0x27 0xbc 0x0 0x1 0xd8 0x26 0x0 0x1 0xd8 0x26 0x2 0x7b 0x2 0x7b 0x1 0xc 0x0 0x98 0x0 0xa2 0x28 0x94 0x2e 0xf1 0x0 0x0 0x22 0x73 0x28 0x7 0x35 0xcf 0x2 0x9b 0xe 0x24 0x0 0x4 0x1b 0xec 0x0 0x16 0x0 0x23 0x0 0x0 0x0 0x0 0x0 0x0 0x0 0x0 0x2a 0x31 0x0 0x0 0x15 0xfa
2020-08-14 19:04:02,758 MainThread      DEBUG    factory        :266      Factory Response[ReadHoldingRegistersResponse: 3]
2020-08-14 19:04:02,765 MainThread      DEBUG    transaction    :383      Adding transaction 1
2020-08-14 19:04:02,769 MainThread      DEBUG    transaction    :394      Getting transaction 1
2020-08-14 19:04:02,773 MainThread      DEBUG    transaction    :193      Changing transaction state from 'PROCESSING REPLY' to 'TRANSACTION_COMPLETE'
2020-08-14 20:00:52,671 MainThread      DEBUG    transaction    :115      Current transaction state - IDLE
2020-08-14 20:00:52,676 MainThread      DEBUG    transaction    :120      Running transaction 1
2020-08-14 20:00:52,680 MainThread      DEBUG    transaction    :219      SEND: 0x0 0x1 0x0 0x0 0x0 0x6 0x1 0x3 0x0 0x0 0x0 0x50
2020-08-14 20:00:52,683 MainThread      DEBUG    sync           :75       New Transaction state 'SENDING'
2020-08-14 20:00:52,686 MainThread      DEBUG    transaction    :228      Changing transaction state from 'SENDING' to 'WAITING FOR REPLY'
2020-08-14 20:00:52,706 MainThread      DEBUG    transaction    :304      Changing transaction state from 'WAITING FOR REPLY' to 'PROCESSING REPLY'
2020-08-14 20:00:52,714 MainThread      DEBUG    transaction    :233      RECV: 0x0 0x1 0x0 0x0 0x0 0xa3 0x1 0x3 0xa0 0x0 0xb4 0x0 0x0 0x0 0x50 0x0 0x0 0x0 0x32 0x0 0x0 0x0 0x0 0x0 0x0 0x24 0xba 0x24 0xa2 0x24 0xc4 0xa 0x8b 0xff 0x7e 0xff 0x76 0xff 0x7e 0x5c 0x0 0x46 0x70 0x59 0x70 0x4b 0xe8 0x4c 0x60 0x72 0x20 0x57 0x38 0x0 0x1 0x72 0xa5 0x24 0x9d 0x24 0xa7 0x24 0x9e 0x24 0xe4 0xff 0xdb 0x0 0x3 0x5c 0x3 0x46 0x6f 0x59 0x6e 0x4b 0xe8 0x57 0x31 0x0 0x1f 0x0 0x1d 0x0 0x1d 0x24 0x9d 0xff 0xed 0x8 0x72 0x2a 0x83 0x0 0x0 0x1a 0xea 0x0 0x0 0x0 0x0 0x0 0x0 0x0 0x0 0x0 0xa6 0x0 0x8 0x0 0x5 0x27 0xe8 0x0 0x1 0xd8 0x29 0x0 0x1 0xd8 0x29 0x2 0x7b 0x2 0x7b 0x0 0x0 0x0 0x2 0x0 0x0 0x1c 0xe3 0x26 0x84 0x0 0x0 0x22 0x73 0x28 0x7 0x35 0xcf 0x2 0x9e 0xe 0x38 0x0 0x4 0x1b 0xec 0x0 0x16 0x0 0x23 0x0 0x0 0x0 0x0 0x0 0x0 0x0 0x0 0x2a 0x31 0x0 0x0 0x15 0xfa
2020-08-14 20:00:52,724 MainThread      DEBUG    socket_framer  :147      Processing: 0x0 0x1 0x0 0x0 0x0 0xa3 0x1 0x3 0xa0 0x0 0xb4 0x0 0x0 0x0 0x50 0x0 0x0 0x0 0x32 0x0 0x0 0x0 0x0 0x0 0x0 0x24 0xba 0x24 0xa2 0x24 0xc4 0xa 0x8b 0xff 0x7e 0xff 0x76 0xff 0x7e 0x5c 0x0 0x46 0x70 0x59 0x70 0x4b 0xe8 0x4c 0x60 0x72 0x20 0x57 0x38 0x0 0x1 0x72 0xa5 0x24 0x9d 0x24 0xa7 0x24 0x9e 0x24 0xe4 0xff 0xdb 0x0 0x3 0x5c 0x3 0x46 0x6f 0x59 0x6e 0x4b 0xe8 0x57 0x31 0x0 0x1f 0x0 0x1d 0x0 0x1d 0x24 0x9d 0xff 0xed 0x8 0x72 0x2a 0x83 0x0 0x0 0x1a 0xea 0x0 0x0 0x0 0x0 0x0 0x0 0x0 0x0 0x0 0xa6 0x0 0x8 0x0 0x5 0x27 0xe8 0x0 0x1 0xd8 0x29 0x0 0x1 0xd8 0x29 0x2 0x7b 0x2 0x7b 0x0 0x0 0x0 0x2 0x0 0x0 0x1c 0xe3 0x26 0x84 0x0 0x0 0x22 0x73 0x28 0x7 0x35 0xcf 0x2 0x9e 0xe 0x38 0x0 0x4 0x1b 0xec 0x0 0x16 0x0 0x23 0x0 0x0 0x0 0x0 0x0 0x0 0x0 0x0 0x2a 0x31 0x0 0x0 0x15 0xfa
2020-08-14 20:00:52,727 MainThread      DEBUG    factory        :266      Factory Response[ReadHoldingRegistersResponse: 3]
2020-08-14 20:00:52,734 MainThread      DEBUG    transaction    :383      Adding transaction 1
2020-08-14 20:00:52,737 MainThread      DEBUG    transaction    :394      Getting transaction 1
2020-08-14 20:00:52,740 MainThread      DEBUG    transaction    :193      Changing transaction state from 'PROCESSING REPLY' to 'TRANSACTION_COMPLETE'
2020-08-14 20:01:49,643 MainThread      DEBUG    transaction    :115      Current transaction state - IDLE
2020-08-14 20:01:49,646 MainThread      DEBUG    transaction    :120      Running transaction 1
2020-08-14 20:01:49,650 MainThread      DEBUG    transaction    :219      SEND: 0x0 0x1 0x0 0x0 0x0 0x6 0x1 0x3 0x0 0x0 0x0 0x50
2020-08-14 20:01:49,653 MainThread      DEBUG    sync           :75       New Transaction state 'SENDING'
2020-08-14 20:01:49,656 MainThread      DEBUG    transaction    :228      Changing transaction state from 'SENDING' to 'WAITING FOR REPLY'
2020-08-14 20:01:49,676 MainThread      DEBUG    transaction    :304      Changing transaction state from 'WAITING FOR REPLY' to 'PROCESSING REPLY'
2020-08-14 20:01:49,684 MainThread      DEBUG    transaction    :233      RECV: 0x0 0x1 0x0 0x0 0x0 0xa3 0x1 0x3 0xa0 0x0 0xb4 0x0 0x0 0x0 0x50 0x0 0x0 0x0 0x32 0x0 0x0 0x0 0x0 0x0 0x0 0x24 0xaa 0x24 0x9a 0x24 0xd4 0xa 0x8a 0x0 0x5f 0x0 0x59 0x0 0x66 0x5c 0x8 0x46 0x70 0x59 0x68 0x4b 0xe0 0x4c 0x70 0x72 0x10 0x57 0x30 0x0 0x1 0x72 0xa5 0x24 0x9c 0x24 0xa8 0x24 0x9c 0x24 0xe2 0xff 0xe0 0x0 0x4 0x5c 0x2 0x46 0x6d 0x59 0x6c 0x4b 0xe7 0x57 0x2f 0x0 0x1f 0x0 0x1d 0x0 0x1d 0x24 0x9c 0xff 0xda 0x8 0x72 0x2a 0x83 0x0 0x0 0x1a 0xea 0x0 0x0 0x0 0x0 0x0 0x0 0x0 0x0 0x0 0xa6 0x0 0x8 0x0 0x5 0x27 0xe8 0x0 0x1 0xd8 0x29 0x0 0x1 0xd8 0x29 0x2 0x7b 0x2 0x7b 0x0 0x0 0x0 0x5 0x0 0x0 0x1c 0xe3 0x26 0x5c 0x0 0x0 0x22 0x73 0x28 0x7 0x35 0xcf 0x2 0x9e 0xe 0x38 0x0 0x4 0x1b 0xec 0x0 0x16 0x0 0x23 0x0 0x0 0x0 0x0 0x0 0x0 0x0 0x0 0x2a 0x31 0x0 0x0 0x15 0xfa
2020-08-14 20:01:49,693 MainThread      DEBUG    socket_framer  :147      Processing: 0x0 0x1 0x0 0x0 0x0 0xa3 0x1 0x3 0xa0 0x0 0xb4 0x0 0x0 0x0 0x50 0x0 0x0 0x0 0x32 0x0 0x0 0x0 0x0 0x0 0x0 0x24 0xaa 0x24 0x9a 0x24 0xd4 0xa 0x8a 0x0 0x5f 0x0 0x59 0x0 0x66 0x5c 0x8 0x46 0x70 0x59 0x68 0x4b 0xe0 0x4c 0x70 0x72 0x10 0x57 0x30 0x0 0x1 0x72 0xa5 0x24 0x9c 0x24 0xa8 0x24 0x9c 0x24 0xe2 0xff 0xe0 0x0 0x4 0x5c 0x2 0x46 0x6d 0x59 0x6c 0x4b 0xe7 0x57 0x2f 0x0 0x1f 0x0 0x1d 0x0 0x1d 0x24 0x9c 0xff 0xda 0x8 0x72 0x2a 0x83 0x0 0x0 0x1a 0xea 0x0 0x0 0x0 0x0 0x0 0x0 0x0 0x0 0x0 0xa6 0x0 0x8 0x0 0x5 0x27 0xe8 0x0 0x1 0xd8 0x29 0x0 0x1 0xd8 0x29 0x2 0x7b 0x2 0x7b 0x0 0x0 0x0 0x5 0x0 0x0 0x1c 0xe3 0x26 0x5c 0x0 0x0 0x22 0x73 0x28 0x7 0x35 0xcf 0x2 0x9e 0xe 0x38 0x0 0x4 0x1b 0xec 0x0 0x16 0x0 0x23 0x0 0x0 0x0 0x0 0x0 0x0 0x0 0x0 0x2a 0x31 0x0 0x0 0x15 0xfa
2020-08-14 20:01:49,696 MainThread      DEBUG    factory        :266      Factory Response[ReadHoldingRegistersResponse: 3]
2020-08-14 20:01:49,703 MainThread      DEBUG    transaction    :383      Adding transaction 1
2020-08-14 20:01:49,706 MainThread      DEBUG    transaction    :394      Getting transaction 1
2020-08-14 20:01:49,708 MainThread      DEBUG    transaction    :193      Changing transaction state from 'PROCESSING REPLY' to 'TRANSACTION_COMPLETE'
2020-08-14 20:07:10,020 MainThread      DEBUG    transaction    :115      Current transaction state - IDLE
2020-08-14 20:07:10,024 MainThread      DEBUG    transaction    :120      Running transaction 1
2020-08-14 20:07:10,028 MainThread      DEBUG    transaction    :219      SEND: 0x0 0x1 0x0 0x0 0x0 0x6 0x1 0x3 0x0 0x0 0x0 0x50
2020-08-14 20:07:10,030 MainThread      DEBUG    sync           :75       New Transaction state 'SENDING'
2020-08-14 20:07:10,034 MainThread      DEBUG    transaction    :228      Changing transaction state from 'SENDING' to 'WAITING FOR REPLY'
2020-08-14 20:07:10,053 MainThread      DEBUG    transaction    :304      Changing transaction state from 'WAITING FOR REPLY' to 'PROCESSING REPLY'
2020-08-14 20:07:10,061 MainThread      DEBUG    transaction    :233      RECV: 0x0 0x1 0x0 0x0 0x0 0xa3 0x1 0x3 0xa0 0x0 0xb4 0x0 0x0 0x0 0x50 0x0 0x0 0x0 0x32 0x0 0x0 0x0 0x0 0x0 0x0 0x24 0xaa 0x24 0x9a 0x24 0xdc 0xa 0x7d 0x0 0x3c 0x0 0x4f 0x0 0x5e 0x5c 0x0 0x46 0x70 0x59 0x70 0x4b 0xe0 0x4c 0xd0 0x72 0x60 0x57 0x28 0x0 0x1 0x72 0xa5 0x24 0x9a 0x24 0xab 0x24 0x9c 0x24 0xe2 0xff 0xc1 0x0 0x2 0x5c 0x3 0x46 0x6f 0x59 0x6d 0x4b 0xe9 0x57 0x31 0x0 0x1f 0x0 0x1d 0x0 0x1d 0x24 0x9a 0xff 0xc5 0x8 0x72 0x2a 0x83 0x0 0x0 0x1a 0xea 0x0 0x0 0x0 0x0 0x0 0x0 0x0 0x0 0x0 0xa6 0x0 0x8 0x0 0x5 0x27 0xe8 0x0 0x1 0xd8 0x29 0x0 0x1 0xd8 0x29 0x2 0x7b 0x2 0x7b 0x0 0x0 0x0 0x2 0x0 0x0 0x1c 0x42 0x25 0xae 0x0 0x0 0x22 0x73 0x28 0x7 0x35 0xcf 0x2 0x9e 0xe 0x38 0x0 0x4 0x1b 0xec 0x0 0x16 0x0 0x23 0x0 0x0 0x0 0x0 0x0 0x0 0x0 0x0 0x2a 0x31 0x0 0x0 0x15 0xfa
2020-08-14 20:07:10,070 MainThread      DEBUG    socket_framer  :147      Processing: 0x0 0x1 0x0 0x0 0x0 0xa3 0x1 0x3 0xa0 0x0 0xb4 0x0 0x0 0x0 0x50 0x0 0x0 0x0 0x32 0x0 0x0 0x0 0x0 0x0 0x0 0x24 0xaa 0x24 0x9a 0x24 0xdc 0xa 0x7d 0x0 0x3c 0x0 0x4f 0x0 0x5e 0x5c 0x0 0x46 0x70 0x59 0x70 0x4b 0xe0 0x4c 0xd0 0x72 0x60 0x57 0x28 0x0 0x1 0x72 0xa5 0x24 0x9a 0x24 0xab 0x24 0x9c 0x24 0xe2 0xff 0xc1 0x0 0x2 0x5c 0x3 0x46 0x6f 0x59 0x6d 0x4b 0xe9 0x57 0x31 0x0 0x1f 0x0 0x1d 0x0 0x1d 0x24 0x9a 0xff 0xc5 0x8 0x72 0x2a 0x83 0x0 0x0 0x1a 0xea 0x0 0x0 0x0 0x0 0x0 0x0 0x0 0x0 0x0 0xa6 0x0 0x8 0x0 0x5 0x27 0xe8 0x0 0x1 0xd8 0x29 0x0 0x1 0xd8 0x29 0x2 0x7b 0x2 0x7b 0x0 0x0 0x0 0x2 0x0 0x0 0x1c 0x42 0x25 0xae 0x0 0x0 0x22 0x73 0x28 0x7 0x35 0xcf 0x2 0x9e 0xe 0x38 0x0 0x4 0x1b 0xec 0x0 0x16 0x0 0x23 0x0 0x0 0x0 0x0 0x0 0x0 0x0 0x0 0x2a 0x31 0x0 0x0 0x15 0xfa
2020-08-14 20:07:10,073 MainThread      DEBUG    factory        :266      Factory Response[ReadHoldingRegistersResponse: 3]
2020-08-14 20:07:10,080 MainThread      DEBUG    transaction    :383      Adding transaction 1
2020-08-14 20:07:10,083 MainThread      DEBUG    transaction    :394      Getting transaction 1
2020-08-14 20:07:10,086 MainThread      DEBUG    transaction    :193      Changing transaction state from 'PROCESSING REPLY' to 'TRANSACTION_COMPLETE'
2020-08-14 20:09:24,912 MainThread      DEBUG    transaction    :115      Current transaction state - IDLE
2020-08-14 20:09:24,916 MainThread      DEBUG    transaction    :120      Running transaction 1
2020-08-14 20:09:24,919 MainThread      DEBUG    transaction    :219      SEND: 0x0 0x1 0x0 0x0 0x0 0x6 0x1 0x3 0x0 0x0 0x0 0x50
2020-08-14 20:09:24,922 MainThread      DEBUG    sync           :75       New Transaction state 'SENDING'
2020-08-14 20:09:24,925 MainThread      DEBUG    transaction    :228      Changing transaction state from 'SENDING' to 'WAITING FOR REPLY'
2020-08-14 20:09:24,945 MainThread      DEBUG    transaction    :304      Changing transaction state from 'WAITING FOR REPLY' to 'PROCESSING REPLY'
2020-08-14 20:09:24,953 MainThread      DEBUG    transaction    :233      RECV: 0x0 0x1 0x0 0x0 0x0 0xa3 0x1 0x3 0xa0 0x0 0xb4 0x0 0x0 0x0 0x50 0x0 0x0 0x0 0x32 0x0 0x0 0x0 0x0 0x0 0x0 0x24 0xaa 0x24 0x9e 0x24 0xed 0xa 0x76 0xff 0x78 0xff 0x72 0xff 0x7a 0x5c 0x0 0x46 0x70 0x59 0x70 0x4b 0xd8 0x4c 0xd0 0x72 0x90 0x57 0x30 0x0 0x1 0x72 0xa5 0x24 0x9a 0x24 0xa8 0x24 0x9b 0x24 0xe0 0xff 0xca 0x0 0x4 0x5c 0x3 0x46 0x6f 0x59 0x6d 0x4b 0xe8 0x57 0x31 0x0 0x1f 0x0 0x1d 0x0 0x1d 0x24 0x9a 0xff 0xc3 0x8 0x72 0x2a 0x83 0x0 0x0 0x1a 0xea 0x0 0x0 0x0 0x0 0x0 0x0 0x0 0x0 0x0 0xa6 0x0 0x8 0x0 0x5 0x27 0xe8 0x0 0x1 0xd8 0x29 0x0 0x1 0xd8 0x29 0x2 0x7b 0x2 0x7b 0x0 0x0 0x0 0x4 0x0 0x0 0x1c 0x1 0x25 0x57 0x0 0x0 0x22 0x73 0x28 0x7 0x35 0xcf 0x2 0x9e 0xe 0x38 0x0 0x4 0x1b 0xec 0x0 0x16 0x0 0x23 0x0 0x0 0x0 0x0 0x0 0x0 0x0 0x0 0x2a 0x31 0x0 0x0 0x15 0xfa
2020-08-14 20:09:24,961 MainThread      DEBUG    socket_framer  :147      Processing: 0x0 0x1 0x0 0x0 0x0 0xa3 0x1 0x3 0xa0 0x0 0xb4 0x0 0x0 0x0 0x50 0x0 0x0 0x0 0x32 0x0 0x0 0x0 0x0 0x0 0x0 0x24 0xaa 0x24 0x9e 0x24 0xed 0xa 0x76 0xff 0x78 0xff 0x72 0xff 0x7a 0x5c 0x0 0x46 0x70 0x59 0x70 0x4b 0xd8 0x4c 0xd0 0x72 0x90 0x57 0x30 0x0 0x1 0x72 0xa5 0x24 0x9a 0x24 0xa8 0x24 0x9b 0x24 0xe0 0xff 0xca 0x0 0x4 0x5c 0x3 0x46 0x6f 0x59 0x6d 0x4b 0xe8 0x57 0x31 0x0 0x1f 0x0 0x1d 0x0 0x1d 0x24 0x9a 0xff 0xc3 0x8 0x72 0x2a 0x83 0x0 0x0 0x1a 0xea 0x0 0x0 0x0 0x0 0x0 0x0 0x0 0x0 0x0 0xa6 0x0 0x8 0x0 0x5 0x27 0xe8 0x0 0x1 0xd8 0x29 0x0 0x1 0xd8 0x29 0x2 0x7b 0x2 0x7b 0x0 0x0 0x0 0x4 0x0 0x0 0x1c 0x1 0x25 0x57 0x0 0x0 0x22 0x73 0x28 0x7 0x35 0xcf 0x2 0x9e 0xe 0x38 0x0 0x4 0x1b 0xec 0x0 0x16 0x0 0x23 0x0 0x0 0x0 0x0 0x0 0x0 0x0 0x0 0x2a 0x31 0x0 0x0 0x15 0xfa
2020-08-14 20:09:24,964 MainThread      DEBUG    factory        :266      Factory Response[ReadHoldingRegistersResponse: 3]
2020-08-14 20:09:24,971 MainThread      DEBUG    transaction    :383      Adding transaction 1
2020-08-14 20:09:24,974 MainThread      DEBUG    transaction    :394      Getting transaction 1
2020-08-14 20:09:24,977 MainThread      DEBUG    transaction    :193      Changing transaction state from 'PROCESSING REPLY' to 'TRANSACTION_COMPLETE'
2020-08-14 20:11:27,281 MainThread      DEBUG    transaction    :115      Current transaction state - IDLE
2020-08-14 20:11:27,285 MainThread      DEBUG    transaction    :120      Running transaction 1
2020-08-14 20:11:27,289 MainThread      DEBUG    transaction    :219      SEND: 0x0 0x1 0x0 0x0 0x0 0x6 0x1 0x3 0x0 0x0 0x0 0x50
2020-08-14 20:11:27,291 MainThread      DEBUG    sync           :75       New Transaction state 'SENDING'
2020-08-14 20:11:27,294 MainThread      DEBUG    transaction    :228      Changing transaction state from 'SENDING' to 'WAITING FOR REPLY'
2020-08-14 20:11:27,315 MainThread      DEBUG    transaction    :304      Changing transaction state from 'WAITING FOR REPLY' to 'PROCESSING REPLY'
2020-08-14 20:11:27,323 MainThread      DEBUG    transaction    :233      RECV: 0x0 0x1 0x0 0x0 0x0 0xa3 0x1 0x3 0xa0 0x0 0xb4 0x0 0x0 0x0 0x50 0x0 0x0 0x0 0x32 0x0 0x0 0x0 0x0 0x0 0x0 0x24 0xae 0x24 0x9a 0x24 0xe5 0xa 0x72 0xff 0xdd 0xff 0xcf 0xff 0xd6 0x5c 0x8 0x46 0x70 0x59 0x68 0x4b 0xf0 0x4d 0x0 0x72 0x80 0x57 0x30 0x0 0x1 0x72 0xa5 0x24 0x98 0x24 0xa0 0x24 0x9a 0x24 0xe0 0xff 0x99 0x0 0x4 0x5c 0x2 0x46 0x6e 0x59 0x6c 0x4b 0xe7 0x57 0x30 0x0 0x1f 0x0 0x1d 0x0 0x1d 0x24 0x99 0xff 0xc2 0x8 0x72 0x2a 0x83 0x0 0x0 0x1a 0xea 0x0 0x0 0x0 0x0 0x0 0x0 0x0 0x0 0x0 0xa6 0x0 0x8 0x0 0x5 0x27 0xe8 0x0 0x1 0xd8 0x29 0x0 0x1 0xd8 0x29 0x2 0x7b 0x2 0x7b 0x0 0x0 0x0 0x4 0x0 0x0 0x1b 0xe1 0x25 0x2d 0x0 0x0 0x22 0x73 0x28 0x7 0x35 0xcf 0x2 0x9e 0xe 0x38 0x0 0x4 0x1b 0xec 0x0 0x16 0x0 0x23 0x0 0x0 0x0 0x0 0x0 0x0 0x0 0x0 0x2a 0x31 0x0 0x0 0x15 0xfa
2020-08-14 20:11:27,331 MainThread      DEBUG    socket_framer  :147      Processing: 0x0 0x1 0x0 0x0 0x0 0xa3 0x1 0x3 0xa0 0x0 0xb4 0x0 0x0 0x0 0x50 0x0 0x0 0x0 0x32 0x0 0x0 0x0 0x0 0x0 0x0 0x24 0xae 0x24 0x9a 0x24 0xe5 0xa 0x72 0xff 0xdd 0xff 0xcf 0xff 0xd6 0x5c 0x8 0x46 0x70 0x59 0x68 0x4b 0xf0 0x4d 0x0 0x72 0x80 0x57 0x30 0x0 0x1 0x72 0xa5 0x24 0x98 0x24 0xa0 0x24 0x9a 0x24 0xe0 0xff 0x99 0x0 0x4 0x5c 0x2 0x46 0x6e 0x59 0x6c 0x4b 0xe7 0x57 0x30 0x0 0x1f 0x0 0x1d 0x0 0x1d 0x24 0x99 0xff 0xc2 0x8 0x72 0x2a 0x83 0x0 0x0 0x1a 0xea 0x0 0x0 0x0 0x0 0x0 0x0 0x0 0x0 0x0 0xa6 0x0 0x8 0x0 0x5 0x27 0xe8 0x0 0x1 0xd8 0x29 0x0 0x1 0xd8 0x29 0x2 0x7b 0x2 0x7b 0x0 0x0 0x0 0x4 0x0 0x0 0x1b 0xe1 0x25 0x2d 0x0 0x0 0x22 0x73 0x28 0x7 0x35 0xcf 0x2 0x9e 0xe 0x38 0x0 0x4 0x1b 0xec 0x0 0x16 0x0 0x23 0x0 0x0 0x0 0x0 0x0 0x0 0x0 0x0 0x2a 0x31 0x0 0x0 0x15 0xfa
2020-08-14 20:11:27,334 MainThread      DEBUG    factory        :266      Factory Response[ReadHoldingRegistersResponse: 3]
2020-08-14 20:11:27,341 MainThread      DEBUG    transaction    :383      Adding transaction 1
2020-08-14 20:11:27,344 MainThread      DEBUG    transaction    :394      Getting transaction 1
2020-08-14 20:11:27,347 MainThread      DEBUG    transaction    :193      Changing transaction state from 'PROCESSING REPLY' to 'TRANSACTION_COMPLETE'
2020-08-14 20:13:18,477 MainThread      DEBUG    transaction    :115      Current transaction state - IDLE
2020-08-14 20:13:18,481 MainThread      DEBUG    transaction    :120      Running transaction 1
2020-08-14 20:13:18,485 MainThread      DEBUG    transaction    :219      SEND: 0x0 0x1 0x0 0x0 0x0 0x6 0x1 0x3 0x0 0x0 0x0 0x50
2020-08-14 20:13:18,488 MainThread      DEBUG    sync           :75       New Transaction state 'SENDING'
2020-08-14 20:13:18,491 MainThread      DEBUG    transaction    :228      Changing transaction state from 'SENDING' to 'WAITING FOR REPLY'
2020-08-14 20:13:18,512 MainThread      DEBUG    transaction    :304      Changing transaction state from 'WAITING FOR REPLY' to 'PROCESSING REPLY'
2020-08-14 20:13:18,520 MainThread      DEBUG    transaction    :233      RECV: 0x0 0x1 0x0 0x0 0x0 0xa3 0x1 0x3 0xa0 0x0 0xb4 0x0 0x0 0x0 0x50 0x0 0x0 0x0 0x32 0x0 0x0 0x0 0x0 0x0 0x0 0x24 0xaa 0x24 0x9a 0x24 0xd4 0xa 0x6f 0x0 0x57 0x0 0x51 0x0 0x60 0x5c 0x0 0x46 0x68 0x59 0x70 0x4b 0xf0 0x4d 0x10 0x72 0xa0 0x57 0x30 0x0 0x1 0x72 0xa5 0x24 0x98 0x24 0xaa 0x24 0x9b 0x24 0xdf 0xff 0xc9 0x0 0x3 0x5c 0x3 0x46 0x6e 0x59 0x6c 0x4b 0xe8 0x57 0x31 0x0 0x1f 0x0 0x1d 0x0 0x1d 0x24 0x98 0xff 0xbf 0x8 0x72 0x2a 0x83 0x0 0x0 0x1a 0xea 0x0 0x0 0x0 0x0 0x0 0x0 0x0 0x0 0x0 0xa6 0x0 0x8 0x0 0x5 0x27 0xe8 0x0 0x1 0xd8 0x29 0x0 0x1 0xd8 0x29 0x2 0x7b 0x2 0x7b 0x0 0x0 0x0 0x3 0x0 0x0 0x1b 0xb8 0x24 0xf6 0x0 0x0 0x22 0x73 0x28 0x7 0x35 0xcf 0x2 0x9e 0xe 0x38 0x0 0x4 0x1b 0xec 0x0 0x16 0x0 0x23 0x0 0x0 0x0 0x0 0x0 0x0 0x0 0x0 0x2a 0x31 0x0 0x0 0x15 0xfa
2020-08-14 20:13:18,527 MainThread      DEBUG    socket_framer  :147      Processing: 0x0 0x1 0x0 0x0 0x0 0xa3 0x1 0x3 0xa0 0x0 0xb4 0x0 0x0 0x0 0x50 0x0 0x0 0x0 0x32 0x0 0x0 0x0 0x0 0x0 0x0 0x24 0xaa 0x24 0x9a 0x24 0xd4 0xa 0x6f 0x0 0x57 0x0 0x51 0x0 0x60 0x5c 0x0 0x46 0x68 0x59 0x70 0x4b 0xf0 0x4d 0x10 0x72 0xa0 0x57 0x30 0x0 0x1 0x72 0xa5 0x24 0x98 0x24 0xaa 0x24 0x9b 0x24 0xdf 0xff 0xc9 0x0 0x3 0x5c 0x3 0x46 0x6e 0x59 0x6c 0x4b 0xe8 0x57 0x31 0x0 0x1f 0x0 0x1d 0x0 0x1d 0x24 0x98 0xff 0xbf 0x8 0x72 0x2a 0x83 0x0 0x0 0x1a 0xea 0x0 0x0 0x0 0x0 0x0 0x0 0x0 0x0 0x0 0xa6 0x0 0x8 0x0 0x5 0x27 0xe8 0x0 0x1 0xd8 0x29 0x0 0x1 0xd8 0x29 0x2 0x7b 0x2 0x7b 0x0 0x0 0x0 0x3 0x0 0x0 0x1b 0xb8 0x24 0xf6 0x0 0x0 0x22 0x73 0x28 0x7 0x35 0xcf 0x2 0x9e 0xe 0x38 0x0 0x4 0x1b 0xec 0x0 0x16 0x0 0x23 0x0 0x0 0x0 0x0 0x0 0x0 0x0 0x0 0x2a 0x31 0x0 0x0 0x15 0xfa
2020-08-14 20:13:18,531 MainThread      DEBUG    factory        :266      Factory Response[ReadHoldingRegistersResponse: 3]
2020-08-14 20:13:18,538 MainThread      DEBUG    transaction    :383      Adding transaction 1
2020-08-14 20:13:18,540 MainThread      DEBUG    transaction    :394      Getting transaction 1
2020-08-14 20:13:18,543 MainThread      DEBUG    transaction    :193      Changing transaction state from 'PROCESSING REPLY' to 'TRANSACTION_COMPLETE'
2020-08-16 08:52:43,149 MainThread      DEBUG    transaction    :115      Current transaction state - IDLE
2020-08-16 08:52:43,154 MainThread      DEBUG    transaction    :120      Running transaction 1
2020-08-16 08:52:43,158 MainThread      DEBUG    transaction    :219      SEND: 0x0 0x1 0x0 0x0 0x0 0x6 0x1 0x3 0x0 0x0 0x0 0x50
2020-08-16 08:52:43,161 MainThread      DEBUG    sync           :75       New Transaction state 'SENDING'
2020-08-16 08:52:43,164 MainThread      DEBUG    transaction    :228      Changing transaction state from 'SENDING' to 'WAITING FOR REPLY'
2020-08-16 08:52:43,179 MainThread      DEBUG    transaction    :304      Changing transaction state from 'WAITING FOR REPLY' to 'PROCESSING REPLY'
2020-08-16 08:52:43,187 MainThread      DEBUG    transaction    :233      RECV: 0x0 0x1 0x0 0x0 0x0 0xa3 0x1 0x3 0xa0 0x0 0xb4 0x0 0x0 0x0 0x50 0x0 0x0 0x0 0x32 0x0 0x0 0x0 0x0 0x0 0x0 0x24 0xa6 0x24 0x91 0x2c 0x30 0xc 0xde 0x1 0x8d 0x0 0x53 0x0 0x7e 0x5c 0x0 0x46 0x68 0x59 0x60 0x4c 0x8 0x55 0xc0 0x82 0xc0 0x57 0x30 0x0 0x1 0x72 0xa5 0x24 0x8e 0x24 0x93 0x24 0x8f 0x2c 0x30 0x2 0x65 0x1 0x9e 0x5c 0x2 0x46 0x6a 0x59 0x60 0x4b 0xf8 0x57 0x2e 0x0 0x1a 0x0 0x17 0x0 0x17 0x24 0x8d 0x2 0x63 0x8 0x72 0x2a 0x83 0x0 0x0 0x1b 0xe 0x0 0x0 0x0 0x0 0x0 0x0 0x0 0x0 0x0 0xa6 0x0 0x8 0x0 0x5 0x28 0x6c 0x0 0x1 0xda 0x42 0x0 0x1 0xda 0x42 0x2 0x7e 0x2 0x7e 0x2 0xbc 0x2 0x3e 0x2 0x3b 0x2c 0x30 0x32 0xda 0x0 0x0 0x23 0x3a 0x24 0x8f 0x32 0xda 0x0 0x1c 0x0 0x82 0x0 0x0 0x3 0xa 0x0 0x17 0x0 0x17 0x0 0x0 0x0 0x0 0x0 0x0 0x0 0x0 0x0 0x0 0x0 0x0 0x0 0x0
2020-08-16 08:52:43,194 MainThread      DEBUG    socket_framer  :147      Processing: 0x0 0x1 0x0 0x0 0x0 0xa3 0x1 0x3 0xa0 0x0 0xb4 0x0 0x0 0x0 0x50 0x0 0x0 0x0 0x32 0x0 0x0 0x0 0x0 0x0 0x0 0x24 0xa6 0x24 0x91 0x2c 0x30 0xc 0xde 0x1 0x8d 0x0 0x53 0x0 0x7e 0x5c 0x0 0x46 0x68 0x59 0x60 0x4c 0x8 0x55 0xc0 0x82 0xc0 0x57 0x30 0x0 0x1 0x72 0xa5 0x24 0x8e 0x24 0x93 0x24 0x8f 0x2c 0x30 0x2 0x65 0x1 0x9e 0x5c 0x2 0x46 0x6a 0x59 0x60 0x4b 0xf8 0x57 0x2e 0x0 0x1a 0x0 0x17 0x0 0x17 0x24 0x8d 0x2 0x63 0x8 0x72 0x2a 0x83 0x0 0x0 0x1b 0xe 0x0 0x0 0x0 0x0 0x0 0x0 0x0 0x0 0x0 0xa6 0x0 0x8 0x0 0x5 0x28 0x6c 0x0 0x1 0xda 0x42 0x0 0x1 0xda 0x42 0x2 0x7e 0x2 0x7e 0x2 0xbc 0x2 0x3e 0x2 0x3b 0x2c 0x30 0x32 0xda 0x0 0x0 0x23 0x3a 0x24 0x8f 0x32 0xda 0x0 0x1c 0x0 0x82 0x0 0x0 0x3 0xa 0x0 0x17 0x0 0x17 0x0 0x0 0x0 0x0 0x0 0x0 0x0 0x0 0x0 0x0 0x0 0x0 0x0 0x0
2020-08-16 08:52:43,198 MainThread      DEBUG    factory        :266      Factory Response[ReadHoldingRegistersResponse: 3]
2020-08-16 08:52:43,204 MainThread      DEBUG    transaction    :383      Adding transaction 1
2020-08-16 08:52:43,207 MainThread      DEBUG    transaction    :394      Getting transaction 1
2020-08-16 08:52:43,210 MainThread      DEBUG    transaction    :193      Changing transaction state from 'PROCESSING REPLY' to 'TRANSACTION_COMPLETE'
2020-08-16 09:33:04,452 MainThread      DEBUG    transaction    :115      Current transaction state - IDLE
2020-08-16 09:33:04,455 MainThread      DEBUG    transaction    :120      Running transaction 1
2020-08-16 09:33:04,459 MainThread      DEBUG    transaction    :219      SEND: 0x0 0x1 0x0 0x0 0x0 0x6 0x1 0x3 0x0 0x0 0x0 0x50
2020-08-16 09:33:04,461 MainThread      DEBUG    sync           :75       New Transaction state 'SENDING'
2020-08-16 09:33:04,464 MainThread      DEBUG    transaction    :228      Changing transaction state from 'SENDING' to 'WAITING FOR REPLY'
2020-08-16 09:33:04,479 MainThread      DEBUG    transaction    :304      Changing transaction state from 'WAITING FOR REPLY' to 'PROCESSING REPLY'
2020-08-16 09:33:04,487 MainThread      DEBUG    transaction    :233      RECV: 0x0 0x1 0x0 0x0 0x0 0xa3 0x1 0x3 0xa0 0x0 0xb4 0x0 0x0 0x0 0x50 0x0 0x0 0x0 0x32 0x0 0x0 0x0 0x0 0x0 0x0 0x24 0x38 0x24 0x2a 0x2d 0x71 0xe 0x9b 0x3 0xe 0x0 0x5a 0x0 0x8b 0x5c 0x0 0x46 0x60 0x59 0x70 0x4b 0xf0 0x54 0x20 0x81 0x10 0x57 0x30 0x0 0x1 0x72 0xa5 0x24 0x2f 0x24 0x33 0x24 0x1e 0x2d 0x5f 0x3 0xed 0x2 0xc8 0x5c 0x2 0x46 0x6a 0x59 0x64 0x4b 0xf3 0x57 0x2e 0x0 0x1b 0x0 0x18 0x0 0x18 0x24 0x30 0x3 0xdf 0x8 0x72 0x2a 0x83 0x0 0x0 0x1b 0xf 0x0 0x0 0x0 0x0 0x0 0x0 0x0 0x0 0x0 0xa6 0x0 0x8 0x0 0x5 0x28 0x56 0x0 0x1 0xda 0x4e 0x0 0x1 0xda 0x4e 0x2 0x7e 0x2 0x7e 0x4 0x70 0x3 0xf0 0x3 0xfc 0x2d 0x5f 0x33 0xb0 0x0 0x0 0x23 0x3a 0x24 0xd6 0x34 0xc0 0x0 0x28 0x0 0xc8 0x0 0x0 0x4 0xc1 0x0 0x17 0x0 0x18 0x0 0x0 0x0 0x0 0x0 0x0 0x0 0x0 0x0 0x0 0x0 0x0 0x0 0x0
2020-08-16 09:33:04,495 MainThread      DEBUG    socket_framer  :147      Processing: 0x0 0x1 0x0 0x0 0x0 0xa3 0x1 0x3 0xa0 0x0 0xb4 0x0 0x0 0x0 0x50 0x0 0x0 0x0 0x32 0x0 0x0 0x0 0x0 0x0 0x0 0x24 0x38 0x24 0x2a 0x2d 0x71 0xe 0x9b 0x3 0xe 0x0 0x5a 0x0 0x8b 0x5c 0x0 0x46 0x60 0x59 0x70 0x4b 0xf0 0x54 0x20 0x81 0x10 0x57 0x30 0x0 0x1 0x72 0xa5 0x24 0x2f 0x24 0x33 0x24 0x1e 0x2d 0x5f 0x3 0xed 0x2 0xc8 0x5c 0x2 0x46 0x6a 0x59 0x64 0x4b 0xf3 0x57 0x2e 0x0 0x1b 0x0 0x18 0x0 0x18 0x24 0x30 0x3 0xdf 0x8 0x72 0x2a 0x83 0x0 0x0 0x1b 0xf 0x0 0x0 0x0 0x0 0x0 0x0 0x0 0x0 0x0 0xa6 0x0 0x8 0x0 0x5 0x28 0x56 0x0 0x1 0xda 0x4e 0x0 0x1 0xda 0x4e 0x2 0x7e 0x2 0x7e 0x4 0x70 0x3 0xf0 0x3 0xfc 0x2d 0x5f 0x33 0xb0 0x0 0x0 0x23 0x3a 0x24 0xd6 0x34 0xc0 0x0 0x28 0x0 0xc8 0x0 0x0 0x4 0xc1 0x0 0x17 0x0 0x18 0x0 0x0 0x0 0x0 0x0 0x0 0x0 0x0 0x0 0x0 0x0 0x0 0x0 0x0
2020-08-16 09:33:04,499 MainThread      DEBUG    factory        :266      Factory Response[ReadHoldingRegistersResponse: 3]
2020-08-16 09:33:04,505 MainThread      DEBUG    transaction    :383      Adding transaction 1
2020-08-16 09:33:04,508 MainThread      DEBUG    transaction    :394      Getting transaction 1
2020-08-16 09:33:04,510 MainThread      DEBUG    transaction    :193      Changing transaction state from 'PROCESSING REPLY' to 'TRANSACTION_COMPLETE'
2020-08-16 09:40:14,285 MainThread      DEBUG    transaction    :115      Current transaction state - IDLE
2020-08-16 09:40:14,291 MainThread      DEBUG    transaction    :120      Running transaction 1
2020-08-16 09:40:14,296 MainThread      DEBUG    transaction    :219      SEND: 0x0 0x1 0x0 0x0 0x0 0x6 0x1 0x3 0x0 0x0 0x0 0x50
2020-08-16 09:40:14,298 MainThread      DEBUG    sync           :75       New Transaction state 'SENDING'
2020-08-16 09:40:14,301 MainThread      DEBUG    transaction    :228      Changing transaction state from 'SENDING' to 'WAITING FOR REPLY'
2020-08-16 09:40:14,316 MainThread      DEBUG    transaction    :304      Changing transaction state from 'WAITING FOR REPLY' to 'PROCESSING REPLY'
2020-08-16 09:40:14,324 MainThread      DEBUG    transaction    :233      RECV: 0x0 0x1 0x0 0x0 0x0 0xa3 0x1 0x3 0xa0 0x0 0xb4 0x0 0x0 0x0 0x50 0x0 0x0 0x0 0x32 0x0 0x0 0x0 0x0 0x0 0x0 0x26 0x65 0x26 0x4e 0x2e 0xdb 0x14 0xcc 0x7 0x8f 0x0 0x59 0x0 0x5a 0x5c 0x10 0x46 0x78 0x59 0x88 0x4c 0x0 0x40 0x60 0x6a 0x20 0x57 0x38 0x0 0x1 0x72 0xa5 0x26 0x48 0x26 0x68 0x26 0x4f 0x2e 0xba 0x8 0x49 0x6 0xca 0x5c 0xb 0x46 0x74 0x59 0x84 0x4b 0xf4 0x57 0x33 0x0 0x26 0x0 0x21 0x0 0x21 0x26 0x3e 0x6 0xbb 0x8 0x72 0x2a 0x83 0x0 0x0 0x1b 0x15 0x0 0x0 0x0 0x0 0x0 0x0 0x0 0x0 0x0 0xa6 0x0 0x4 0x0 0x7 0x26 0x48 0x0 0x1 0xdb 0xa7 0x0 0x1 0xdb 0xa7 0x2 0x80 0x2 0x80 0x9 0xe9 0x9 0xf7 0xb 0x24 0x28 0xc4 0x32 0xae 0x0 0x0 0x23 0x3a 0x28 0x4e 0x35 0xd4 0x1 0x81 0x8 0x2a 0x0 0x4 0x1d 0x82 0x0 0x17 0x0 0x21 0x0 0x0 0x0 0x0 0x0 0x0 0x0 0x0 0x23 0x29 0x0 0x0 0x10 0xf4
2020-08-16 09:40:14,332 MainThread      DEBUG    socket_framer  :147      Processing: 0x0 0x1 0x0 0x0 0x0 0xa3 0x1 0x3 0xa0 0x0 0xb4 0x0 0x0 0x0 0x50 0x0 0x0 0x0 0x32 0x0 0x0 0x0 0x0 0x0 0x0 0x26 0x65 0x26 0x4e 0x2e 0xdb 0x14 0xcc 0x7 0x8f 0x0 0x59 0x0 0x5a 0x5c 0x10 0x46 0x78 0x59 0x88 0x4c 0x0 0x40 0x60 0x6a 0x20 0x57 0x38 0x0 0x1 0x72 0xa5 0x26 0x48 0x26 0x68 0x26 0x4f 0x2e 0xba 0x8 0x49 0x6 0xca 0x5c 0xb 0x46 0x74 0x59 0x84 0x4b 0xf4 0x57 0x33 0x0 0x26 0x0 0x21 0x0 0x21 0x26 0x3e 0x6 0xbb 0x8 0x72 0x2a 0x83 0x0 0x0 0x1b 0x15 0x0 0x0 0x0 0x0 0x0 0x0 0x0 0x0 0x0 0xa6 0x0 0x4 0x0 0x7 0x26 0x48 0x0 0x1 0xdb 0xa7 0x0 0x1 0xdb 0xa7 0x2 0x80 0x2 0x80 0x9 0xe9 0x9 0xf7 0xb 0x24 0x28 0xc4 0x32 0xae 0x0 0x0 0x23 0x3a 0x28 0x4e 0x35 0xd4 0x1 0x81 0x8 0x2a 0x0 0x4 0x1d 0x82 0x0 0x17 0x0 0x21 0x0 0x0 0x0 0x0 0x0 0x0 0x0 0x0 0x23 0x29 0x0 0x0 0x10 0xf4
2020-08-16 09:40:14,335 MainThread      DEBUG    factory        :266      Factory Response[ReadHoldingRegistersResponse: 3]
2020-08-16 09:40:14,342 MainThread      DEBUG    transaction    :383      Adding transaction 1
2020-08-16 09:40:14,345 MainThread      DEBUG    transaction    :394      Getting transaction 1
2020-08-16 09:40:14,348 MainThread      DEBUG    transaction    :193      Changing transaction state from 'PROCESSING REPLY' to 'TRANSACTION_COMPLETE'
2020-08-16 09:53:51,605 MainThread      DEBUG    transaction    :115      Current transaction state - IDLE
2020-08-16 09:53:51,609 MainThread      DEBUG    transaction    :120      Running transaction 1
2020-08-16 09:53:51,614 MainThread      DEBUG    transaction    :219      SEND: 0x0 0x1 0x0 0x0 0x0 0x6 0x1 0x3 0x0 0x0 0x0 0x50
2020-08-16 09:53:51,617 MainThread      DEBUG    sync           :75       New Transaction state 'SENDING'
2020-08-16 09:53:51,620 MainThread      DEBUG    transaction    :228      Changing transaction state from 'SENDING' to 'WAITING FOR REPLY'
2020-08-16 09:53:51,636 MainThread      DEBUG    transaction    :304      Changing transaction state from 'WAITING FOR REPLY' to 'PROCESSING REPLY'
2020-08-16 09:53:51,644 MainThread      DEBUG    transaction    :233      RECV: 0x0 0x1 0x0 0x0 0x0 0xa3 0x1 0x3 0xa0 0x0 0xb4 0x0 0x0 0x0 0x50 0x0 0x0 0x0 0x32 0x0 0x0 0x0 0x0 0x0 0x0 0x26 0x61 0x26 0x41 0x28 0xe1 0x16 0x17 0x7 0xcd 0x0 0x19 0xff 0xfd 0x5c 0x10 0x46 0x78 0x59 0x88 0x4b 0xe8 0x40 0xc0 0x6a 0xa0 0x57 0x38 0x0 0x1 0x72 0xa5 0x26 0x45 0x26 0x5a 0x26 0x43 0x29 0x4b 0x7 0xd6 0x7 0xad 0x5c 0xe 0x46 0x77 0x59 0x86 0x4b 0xee 0x57 0x35 0x0 0x26 0x0 0x21 0x0 0x21 0x26 0x46 0x7 0xca 0x8 0x72 0x2a 0x83 0x0 0x0 0x1b 0x15 0x0 0x0 0x0 0x0 0x0 0x0 0x0 0x0 0x0 0xa6 0x0 0x4 0x0 0x7 0x26 0x48 0x0 0x1 0xdb 0xb2 0x0 0x1 0xdb 0xb2 0x2 0x80 0x2 0x80 0x9 0x5f 0x9 0xe6 0xb 0x24 0x28 0xc4 0x32 0xae 0x0 0x0 0x23 0x3a 0x28 0x4e 0x35 0xd4 0x1 0x8c 0x8 0x66 0x0 0x4 0x1d 0x82 0x0 0x17 0x0 0x21 0x0 0x0 0x0 0x0 0x0 0x0 0x0 0x0 0x23 0x29 0x0 0x0 0x14 0x26
2020-08-16 09:53:51,652 MainThread      DEBUG    socket_framer  :147      Processing: 0x0 0x1 0x0 0x0 0x0 0xa3 0x1 0x3 0xa0 0x0 0xb4 0x0 0x0 0x0 0x50 0x0 0x0 0x0 0x32 0x0 0x0 0x0 0x0 0x0 0x0 0x26 0x61 0x26 0x41 0x28 0xe1 0x16 0x17 0x7 0xcd 0x0 0x19 0xff 0xfd 0x5c 0x10 0x46 0x78 0x59 0x88 0x4b 0xe8 0x40 0xc0 0x6a 0xa0 0x57 0x38 0x0 0x1 0x72 0xa5 0x26 0x45 0x26 0x5a 0x26 0x43 0x29 0x4b 0x7 0xd6 0x7 0xad 0x5c 0xe 0x46 0x77 0x59 0x86 0x4b 0xee 0x57 0x35 0x0 0x26 0x0 0x21 0x0 0x21 0x26 0x46 0x7 0xca 0x8 0x72 0x2a 0x83 0x0 0x0 0x1b 0x15 0x0 0x0 0x0 0x0 0x0 0x0 0x0 0x0 0x0 0xa6 0x0 0x4 0x0 0x7 0x26 0x48 0x0 0x1 0xdb 0xb2 0x0 0x1 0xdb 0xb2 0x2 0x80 0x2 0x80 0x9 0x5f 0x9 0xe6 0xb 0x24 0x28 0xc4 0x32 0xae 0x0 0x0 0x23 0x3a 0x28 0x4e 0x35 0xd4 0x1 0x8c 0x8 0x66 0x0 0x4 0x1d 0x82 0x0 0x17 0x0 0x21 0x0 0x0 0x0 0x0 0x0 0x0 0x0 0x0 0x23 0x29 0x0 0x0 0x14 0x26
2020-08-16 09:53:51,655 MainThread      DEBUG    factory        :266      Factory Response[ReadHoldingRegistersResponse: 3]
2020-08-16 09:53:51,663 MainThread      DEBUG    transaction    :383      Adding transaction 1
2020-08-16 09:53:51,666 MainThread      DEBUG    transaction    :394      Getting transaction 1
2020-08-16 09:53:51,668 MainThread      DEBUG    transaction    :193      Changing transaction state from 'PROCESSING REPLY' to 'TRANSACTION_COMPLETE'
2020-08-16 16:02:25,337 MainThread      DEBUG    transaction    :115      Current transaction state - IDLE
2020-08-16 16:02:25,342 MainThread      DEBUG    transaction    :120      Running transaction 1
2020-08-16 16:02:25,346 MainThread      DEBUG    transaction    :219      SEND: 0x0 0x1 0x0 0x0 0x0 0x6 0x1 0x3 0x0 0x0 0x0 0x50
2020-08-16 16:02:25,348 MainThread      DEBUG    sync           :75       New Transaction state 'SENDING'
2020-08-16 16:02:25,359 MainThread      DEBUG    transaction    :228      Changing transaction state from 'SENDING' to 'WAITING FOR REPLY'
2020-08-16 16:02:25,373 MainThread      DEBUG    transaction    :304      Changing transaction state from 'WAITING FOR REPLY' to 'PROCESSING REPLY'
2020-08-16 16:02:25,381 MainThread      DEBUG    transaction    :233      RECV: 0x0 0x1 0x0 0x0 0x0 0xa3 0x1 0x3 0xa0 0x0 0xb4 0x0 0x0 0x0 0x50 0x0 0x0 0x0 0x32 0x0 0x0 0x0 0x0 0x0 0x0 0x26 0x8e 0x26 0x75 0x2e 0xe3 0xf 0x22 0x3 0x32 0x0 0x5c 0x0 0x84 0x5c 0x10 0x46 0x78 0x59 0x80 0x4b 0xf8 0x44 0x10 0x6d 0xc0 0x57 0x30 0x0 0x1 0x72 0xa5 0x26 0x74 0x26 0x8b 0x26 0x74 0x2e 0xdb 0x4 0x1c 0x3 0x8 0x5c 0xa 0x46 0x74 0x59 0x77 0x4b 0xf5 0x57 0x33 0x0 0x24 0x0 0x1f 0x0 0x1f 0x26 0x74 0x4 0x20 0x8 0x72 0x2a 0x83 0x0 0x0 0x1b 0x16 0x0 0x0 0x0 0x0 0x0 0x0 0x0 0x0 0x0 0xa6 0x0 0x4 0x0 0x7 0x26 0x74 0x0 0x1 0xdb 0xc4 0x0 0x1 0xdb 0xc4 0x2 0x80 0x2 0x80 0x4 0xf0 0x4 0x71 0xb 0x24 0x28 0xc4 0x33 0x1a 0x0 0x0 0x23 0x3a 0x28 0x4e 0x35 0xd4 0x1 0x9e 0x8 0xc0 0x0 0x4 0x1d 0x82 0x0 0x17 0x0 0x21 0x0 0x0 0x0 0x0 0x0 0x0 0x0 0x0 0x23 0x29 0x0 0x0 0x1d 0x33
2020-08-16 16:02:25,389 MainThread      DEBUG    socket_framer  :147      Processing: 0x0 0x1 0x0 0x0 0x0 0xa3 0x1 0x3 0xa0 0x0 0xb4 0x0 0x0 0x0 0x50 0x0 0x0 0x0 0x32 0x0 0x0 0x0 0x0 0x0 0x0 0x26 0x8e 0x26 0x75 0x2e 0xe3 0xf 0x22 0x3 0x32 0x0 0x5c 0x0 0x84 0x5c 0x10 0x46 0x78 0x59 0x80 0x4b 0xf8 0x44 0x10 0x6d 0xc0 0x57 0x30 0x0 0x1 0x72 0xa5 0x26 0x74 0x26 0x8b 0x26 0x74 0x2e 0xdb 0x4 0x1c 0x3 0x8 0x5c 0xa 0x46 0x74 0x59 0x77 0x4b 0xf5 0x57 0x33 0x0 0x24 0x0 0x1f 0x0 0x1f 0x26 0x74 0x4 0x20 0x8 0x72 0x2a 0x83 0x0 0x0 0x1b 0x16 0x0 0x0 0x0 0x0 0x0 0x0 0x0 0x0 0x0 0xa6 0x0 0x4 0x0 0x7 0x26 0x74 0x0 0x1 0xdb 0xc4 0x0 0x1 0xdb 0xc4 0x2 0x80 0x2 0x80 0x4 0xf0 0x4 0x71 0xb 0x24 0x28 0xc4 0x33 0x1a 0x0 0x0 0x23 0x3a 0x28 0x4e 0x35 0xd4 0x1 0x9e 0x8 0xc0 0x0 0x4 0x1d 0x82 0x0 0x17 0x0 0x21 0x0 0x0 0x0 0x0 0x0 0x0 0x0 0x0 0x23 0x29 0x0 0x0 0x1d 0x33
2020-08-16 16:02:25,393 MainThread      DEBUG    factory        :266      Factory Response[ReadHoldingRegistersResponse: 3]
2020-08-16 16:02:25,399 MainThread      DEBUG    transaction    :383      Adding transaction 1
2020-08-16 16:02:25,402 MainThread      DEBUG    transaction    :394      Getting transaction 1
2020-08-16 16:02:25,405 MainThread      DEBUG    transaction    :193      Changing transaction state from 'PROCESSING REPLY' to 'TRANSACTION_COMPLETE'
2020-08-16 16:04:17,016 MainThread      DEBUG    transaction    :115      Current transaction state - IDLE
2020-08-16 16:04:17,019 MainThread      DEBUG    transaction    :120      Running transaction 1
2020-08-16 16:04:17,023 MainThread      DEBUG    transaction    :219      SEND: 0x0 0x1 0x0 0x0 0x0 0x6 0x1 0x3 0x0 0x0 0x0 0x50
2020-08-16 16:04:17,026 MainThread      DEBUG    sync           :75       New Transaction state 'SENDING'
2020-08-16 16:04:17,029 MainThread      DEBUG    transaction    :228      Changing transaction state from 'SENDING' to 'WAITING FOR REPLY'
2020-08-16 16:04:17,044 MainThread      DEBUG    transaction    :304      Changing transaction state from 'WAITING FOR REPLY' to 'PROCESSING REPLY'
2020-08-16 16:04:17,052 MainThread      DEBUG    transaction    :233      RECV: 0x0 0x1 0x0 0x0 0x0 0xa3 0x1 0x3 0xa0 0x0 0xb4 0x0 0x0 0x0 0x50 0x0 0x0 0x0 0x32 0x0 0x0 0x0 0x0 0x0 0x0 0x26 0x7a 0x26 0x75 0x2e 0x5 0xf 0x4a 0x3 0x47 0x0 0x53 0x0 0x79 0x5c 0x8 0x46 0x70 0x59 0x78 0x4b 0xe8 0x44 0x30 0x6d 0xf0 0x57 0x30 0x0 0x0 0x72 0xa5 0x26 0x74 0x26 0x84 0x26 0x75 0x2e 0xb 0x4 0x12 0x3 0x1f 0x5c 0xa 0x46 0x74 0x59 0x80 0x4b 0xf5 0x57 0x33 0x0 0x24 0x0 0x1f 0x0 0x1f 0x26 0x74 0x4 0x13 0x8 0x72 0x2a 0x83 0x0 0x0 0x1b 0x16 0x0 0x0 0x0 0x0 0x0 0x0 0x0 0x0 0x0 0xa6 0x0 0x4 0x0 0x7 0x26 0x74 0x0 0x1 0xdb 0xc5 0x0 0x1 0xdb 0xc5 0x2 0x80 0x2 0x80 0x4 0xe4 0x4 0x80 0xb 0x24 0x28 0xc4 0x33 0x1a 0x0 0x0 0x23 0x3a 0x28 0x4e 0x35 0xd4 0x1 0x9f 0x8 0xca 0x0 0x4 0x1d 0x82 0x0 0x17 0x0 0x21 0x0 0x0 0x0 0x0 0x0 0x0 0x0 0x0 0x23 0x29 0x0 0x0 0x1d 0xa2
2020-08-16 16:04:17,062 MainThread      DEBUG    socket_framer  :147      Processing: 0x0 0x1 0x0 0x0 0x0 0xa3 0x1 0x3 0xa0 0x0 0xb4 0x0 0x0 0x0 0x50 0x0 0x0 0x0 0x32 0x0 0x0 0x0 0x0 0x0 0x0 0x26 0x7a 0x26 0x75 0x2e 0x5 0xf 0x4a 0x3 0x47 0x0 0x53 0x0 0x79 0x5c 0x8 0x46 0x70 0x59 0x78 0x4b 0xe8 0x44 0x30 0x6d 0xf0 0x57 0x30 0x0 0x0 0x72 0xa5 0x26 0x74 0x26 0x84 0x26 0x75 0x2e 0xb 0x4 0x12 0x3 0x1f 0x5c 0xa 0x46 0x74 0x59 0x80 0x4b 0xf5 0x57 0x33 0x0 0x24 0x0 0x1f 0x0 0x1f 0x26 0x74 0x4 0x13 0x8 0x72 0x2a 0x83 0x0 0x0 0x1b 0x16 0x0 0x0 0x0 0x0 0x0 0x0 0x0 0x0 0x0 0xa6 0x0 0x4 0x0 0x7 0x26 0x74 0x0 0x1 0xdb 0xc5 0x0 0x1 0xdb 0xc5 0x2 0x80 0x2 0x80 0x4 0xe4 0x4 0x80 0xb 0x24 0x28 0xc4 0x33 0x1a 0x0 0x0 0x23 0x3a 0x28 0x4e 0x35 0xd4 0x1 0x9f 0x8 0xca 0x0 0x4 0x1d 0x82 0x0 0x17 0x0 0x21 0x0 0x0 0x0 0x0 0x0 0x0 0x0 0x0 0x23 0x29 0x0 0x0 0x1d 0xa2
2020-08-16 16:04:17,065 MainThread      DEBUG    factory        :266      Factory Response[ReadHoldingRegistersResponse: 3]
2020-08-16 16:04:17,072 MainThread      DEBUG    transaction    :383      Adding transaction 1
2020-08-16 16:04:17,075 MainThread      DEBUG    transaction    :394      Getting transaction 1
2020-08-16 16:04:17,078 MainThread      DEBUG    transaction    :193      Changing transaction state from 'PROCESSING REPLY' to 'TRANSACTION_COMPLETE'
2020-08-16 16:06:12,602 MainThread      DEBUG    transaction    :115      Current transaction state - IDLE
2020-08-16 16:06:12,614 MainThread      DEBUG    transaction    :120      Running transaction 1
2020-08-16 16:06:12,618 MainThread      DEBUG    transaction    :219      SEND: 0x0 0x1 0x0 0x0 0x0 0x6 0x1 0x3 0x0 0x0 0x0 0x50
2020-08-16 16:06:12,630 MainThread      DEBUG    sync           :75       New Transaction state 'SENDING'
2020-08-16 16:06:12,633 MainThread      DEBUG    transaction    :228      Changing transaction state from 'SENDING' to 'WAITING FOR REPLY'
2020-08-16 16:06:15,666 MainThread      DEBUG    transaction    :238      Transaction failed. (Modbus Error: [Invalid Message] Incomplete message received, expected at least 8 bytes (0 received)) 
2020-08-16 16:06:15,669 MainThread      DEBUG    socket_framer  :147      Processing: 
2020-08-16 16:06:15,682 MainThread      DEBUG    transaction    :394      Getting transaction 1
2020-08-16 16:06:15,685 MainThread      DEBUG    transaction    :193      Changing transaction state from 'PROCESSING REPLY' to 'TRANSACTION_COMPLETE'
2020-08-16 16:06:34,486 MainThread      DEBUG    transaction    :115      Current transaction state - IDLE
2020-08-16 16:06:34,488 MainThread      DEBUG    transaction    :120      Running transaction 1
2020-08-16 16:06:34,502 MainThread      DEBUG    transaction    :219      SEND: 0x0 0x1 0x0 0x0 0x0 0x6 0x1 0x3 0x0 0x0 0x0 0x50
2020-08-16 16:06:34,505 MainThread      DEBUG    sync           :75       New Transaction state 'SENDING'
2020-08-16 16:06:34,508 MainThread      DEBUG    transaction    :228      Changing transaction state from 'SENDING' to 'WAITING FOR REPLY'
2020-08-16 16:06:34,523 MainThread      DEBUG    transaction    :304      Changing transaction state from 'WAITING FOR REPLY' to 'PROCESSING REPLY'
2020-08-16 16:06:34,530 MainThread      DEBUG    transaction    :233      RECV: 0x0 0x1 0x0 0x0 0x0 0xa3 0x1 0x3 0xa0 0x0 0xb4 0x0 0x0 0x0 0x50 0x0 0x0 0x0 0x32 0x0 0x0 0x0 0x0 0x0 0x0 0x26 0x8a 0x26 0x75 0x2e 0x99 0xf 0x31 0x3 0x46 0x0 0x56 0x0 0x7e 0x5c 0x8 0x46 0x78 0x59 0x78 0x4b 0xf0 0x44 0x60 0x6e 0x20 0x57 0x30 0x0 0x0 0x72 0xa5 0x26 0x74 0x26 0x89 0x26 0x77 0x2e 0x80 0x4 0x12 0x3 0x15 0x5c 0x8 0x46 0x74 0x59 0x7f 0x4b 0xf3 0x57 0x31 0x0 0x23 0x0 0x1f 0x0 0x1f 0x26 0x74 0x4 0x13 0x8 0x72 0x2a 0x83 0x0 0x0 0x1b 0x16 0x0 0x0 0x0 0x0 0x0 0x0 0x0 0x0 0x0 0xa6 0x0 0x4 0x0 0x7 0x26 0x74 0x0 0x1 0xdb 0xc6 0x0 0x1 0xdb 0xc6 0x2 0x80 0x2 0x80 0x4 0xe4 0x4 0x76 0xb 0x24 0x28 0xc4 0x33 0x1a 0x0 0x0 0x23 0x3a 0x28 0x4e 0x35 0xd4 0x1 0xa0 0x8 0xca 0x0 0x4 0x1d 0x82 0x0 0x17 0x0 0x21 0x0 0x0 0x0 0x0 0x0 0x0 0x0 0x0 0x23 0x29 0x0 0x0 0x1e 0x2c
2020-08-16 16:06:34,548 MainThread      DEBUG    socket_framer  :147      Processing: 0x0 0x1 0x0 0x0 0x0 0xa3 0x1 0x3 0xa0 0x0 0xb4 0x0 0x0 0x0 0x50 0x0 0x0 0x0 0x32 0x0 0x0 0x0 0x0 0x0 0x0 0x26 0x8a 0x26 0x75 0x2e 0x99 0xf 0x31 0x3 0x46 0x0 0x56 0x0 0x7e 0x5c 0x8 0x46 0x78 0x59 0x78 0x4b 0xf0 0x44 0x60 0x6e 0x20 0x57 0x30 0x0 0x0 0x72 0xa5 0x26 0x74 0x26 0x89 0x26 0x77 0x2e 0x80 0x4 0x12 0x3 0x15 0x5c 0x8 0x46 0x74 0x59 0x7f 0x4b 0xf3 0x57 0x31 0x0 0x23 0x0 0x1f 0x0 0x1f 0x26 0x74 0x4 0x13 0x8 0x72 0x2a 0x83 0x0 0x0 0x1b 0x16 0x0 0x0 0x0 0x0 0x0 0x0 0x0 0x0 0x0 0xa6 0x0 0x4 0x0 0x7 0x26 0x74 0x0 0x1 0xdb 0xc6 0x0 0x1 0xdb 0xc6 0x2 0x80 0x2 0x80 0x4 0xe4 0x4 0x76 0xb 0x24 0x28 0xc4 0x33 0x1a 0x0 0x0 0x23 0x3a 0x28 0x4e 0x35 0xd4 0x1 0xa0 0x8 0xca 0x0 0x4 0x1d 0x82 0x0 0x17 0x0 0x21 0x0 0x0 0x0 0x0 0x0 0x0 0x0 0x0 0x23 0x29 0x0 0x0 0x1e 0x2c
2020-08-16 16:06:34,562 MainThread      DEBUG    factory        :266      Factory Response[ReadHoldingRegistersResponse: 3]
2020-08-16 16:06:34,568 MainThread      DEBUG    transaction    :383      Adding transaction 1
2020-08-16 16:06:34,581 MainThread      DEBUG    transaction    :394      Getting transaction 1
2020-08-16 16:06:34,584 MainThread      DEBUG    transaction    :193      Changing transaction state from 'PROCESSING REPLY' to 'TRANSACTION_COMPLETE'
2020-08-16 16:08:30,940 MainThread      DEBUG    transaction    :115      Current transaction state - IDLE
2020-08-16 16:08:30,945 MainThread      DEBUG    transaction    :120      Running transaction 1
2020-08-16 16:08:30,949 MainThread      DEBUG    transaction    :219      SEND: 0x0 0x1 0x0 0x0 0x0 0x6 0x1 0x3 0x0 0x0 0x0 0x50
2020-08-16 16:08:30,952 MainThread      DEBUG    sync           :75       New Transaction state 'SENDING'
2020-08-16 16:08:30,955 MainThread      DEBUG    transaction    :228      Changing transaction state from 'SENDING' to 'WAITING FOR REPLY'
2020-08-16 16:08:30,970 MainThread      DEBUG    transaction    :304      Changing transaction state from 'WAITING FOR REPLY' to 'PROCESSING REPLY'
2020-08-16 16:08:30,978 MainThread      DEBUG    transaction    :233      RECV: 0x0 0x1 0x0 0x0 0x0 0xa3 0x1 0x3 0xa0 0x0 0xb4 0x0 0x0 0x0 0x50 0x0 0x0 0x0 0x32 0x0 0x0 0x0 0x0 0x0 0x0 0x25 0x96 0x25 0x90 0x2a 0x7c 0xf 0xe5 0x3 0xb4 0x0 0x34 0x0 0x4e 0x5c 0x8 0x46 0x70 0x59 0x80 0x4b 0xf0 0x44 0xc0 0x6e 0x30 0x57 0x30 0x0 0x1 0x72 0xa5 0x25 0x91 0x25 0xa1 0x25 0x93 0x2a 0x9a 0x4 0x32 0x3 0xa4 0x5c 0x8 0x46 0x73 0x59 0x7c 0x4b 0xf1 0x57 0x31 0x0 0x23 0x0 0x1f 0x0 0x1f 0x25 0x7a 0x4 0x3d 0x8 0x72 0x2a 0x83 0x0 0x0 0x1b 0x16 0x0 0x0 0x0 0x0 0x0 0x0 0x0 0x0 0x0 0xa6 0x0 0x4 0x0 0x7 0x26 0x74 0x0 0x1 0xdb 0xc7 0x0 0x1 0xdb 0xc7 0x2 0x80 0x2 0x80 0x4 0xec 0x4 0xd8 0x4 0xf8 0x2a 0x9a 0x32 0xb0 0x0 0x0 0x23 0x3a 0x28 0x4e 0x35 0xd4 0x1 0xa1 0x8 0xd4 0x0 0x4 0x1d 0x82 0x0 0x17 0x0 0x21 0x0 0x0 0x0 0x0 0x0 0x0 0x0 0x0 0x23 0x29 0x0 0x0 0x1e 0x9a
2020-08-16 16:08:30,986 MainThread      DEBUG    socket_framer  :147      Processing: 0x0 0x1 0x0 0x0 0x0 0xa3 0x1 0x3 0xa0 0x0 0xb4 0x0 0x0 0x0 0x50 0x0 0x0 0x0 0x32 0x0 0x0 0x0 0x0 0x0 0x0 0x25 0x96 0x25 0x90 0x2a 0x7c 0xf 0xe5 0x3 0xb4 0x0 0x34 0x0 0x4e 0x5c 0x8 0x46 0x70 0x59 0x80 0x4b 0xf0 0x44 0xc0 0x6e 0x30 0x57 0x30 0x0 0x1 0x72 0xa5 0x25 0x91 0x25 0xa1 0x25 0x93 0x2a 0x9a 0x4 0x32 0x3 0xa4 0x5c 0x8 0x46 0x73 0x59 0x7c 0x4b 0xf1 0x57 0x31 0x0 0x23 0x0 0x1f 0x0 0x1f 0x25 0x7a 0x4 0x3d 0x8 0x72 0x2a 0x83 0x0 0x0 0x1b 0x16 0x0 0x0 0x0 0x0 0x0 0x0 0x0 0x0 0x0 0xa6 0x0 0x4 0x0 0x7 0x26 0x74 0x0 0x1 0xdb 0xc7 0x0 0x1 0xdb 0xc7 0x2 0x80 0x2 0x80 0x4 0xec 0x4 0xd8 0x4 0xf8 0x2a 0x9a 0x32 0xb0 0x0 0x0 0x23 0x3a 0x28 0x4e 0x35 0xd4 0x1 0xa1 0x8 0xd4 0x0 0x4 0x1d 0x82 0x0 0x17 0x0 0x21 0x0 0x0 0x0 0x0 0x0 0x0 0x0 0x0 0x23 0x29 0x0 0x0 0x1e 0x9a
2020-08-16 16:08:30,989 MainThread      DEBUG    factory        :266      Factory Response[ReadHoldingRegistersResponse: 3]
2020-08-16 16:08:30,996 MainThread      DEBUG    transaction    :383      Adding transaction 1
2020-08-16 16:08:30,998 MainThread      DEBUG    transaction    :394      Getting transaction 1
2020-08-16 16:08:31,001 MainThread      DEBUG    transaction    :193      Changing transaction state from 'PROCESSING REPLY' to 'TRANSACTION_COMPLETE'
2020-08-16 19:07:26,541 MainThread      DEBUG    transaction    :115      Current transaction state - IDLE
2020-08-16 19:07:26,547 MainThread      DEBUG    transaction    :120      Running transaction 1
2020-08-16 19:07:26,551 MainThread      DEBUG    transaction    :219      SEND: 0x0 0x1 0x0 0x0 0x0 0x6 0x1 0x3 0x0 0x0 0x0 0x50
2020-08-16 19:07:26,554 MainThread      DEBUG    sync           :75       New Transaction state 'SENDING'
2020-08-16 19:07:26,557 MainThread      DEBUG    transaction    :228      Changing transaction state from 'SENDING' to 'WAITING FOR REPLY'
2020-08-16 19:07:26,577 MainThread      DEBUG    transaction    :304      Changing transaction state from 'WAITING FOR REPLY' to 'PROCESSING REPLY'
2020-08-16 19:07:26,588 MainThread      DEBUG    transaction    :233      RECV: 0x0 0x1 0x0 0x0 0x0 0xa3 0x1 0x3 0xa0 0x0 0xb4 0x0 0x0 0x0 0x50 0x0 0x0 0x0 0x32 0x0 0x0 0x0 0x0 0x0 0x0 0x24 0x75 0x24 0x62 0x24 0xab 0xa 0xbd 0xff 0xb8 0xff 0xad 0xff 0xca 0x5c 0x0 0x46 0x70 0x59 0x68 0x4b 0xe0 0x4d 0x90 0x75 0x10 0x57 0x30 0x0 0x1 0x72 0xa5 0x24 0x63 0x24 0x76 0x24 0x63 0x24 0xac 0x0 0x18 0x0 0xa 0x5c 0x3 0x46 0x6e 0x59 0x6c 0x4b 0xe9 0x57 0x30 0x0 0x1e 0x0 0x1d 0x0 0x1d 0x24 0x63 0x0 0x2c 0x8 0x72 0x2a 0x83 0x0 0x0 0x1b 0x19 0x0 0x0 0x0 0x0 0x0 0x0 0x0 0x0 0x0 0xa6 0x0 0x8 0x0 0x5 0x27 0xe8 0x0 0x1 0xdb 0xfa 0x0 0x1 0xdb 0xfa 0x2 0x80 0x2 0x80 0x0 0x1b 0x0 0xd 0x0 0x0 0x1e 0x16 0x28 0x1e 0x0 0x0 0x23 0x3a 0x28 0x4e 0x35 0xd4 0x1 0xd4 0x9 0xd8 0x0 0x4 0x1d 0x82 0x0 0x17 0x0 0x21 0x0 0x0 0x0 0x0 0x0 0x0 0x0 0x0 0x23 0x29 0x0 0x0 0x20 0xcb
2020-08-16 19:07:26,596 MainThread      DEBUG    socket_framer  :147      Processing: 0x0 0x1 0x0 0x0 0x0 0xa3 0x1 0x3 0xa0 0x0 0xb4 0x0 0x0 0x0 0x50 0x0 0x0 0x0 0x32 0x0 0x0 0x0 0x0 0x0 0x0 0x24 0x75 0x24 0x62 0x24 0xab 0xa 0xbd 0xff 0xb8 0xff 0xad 0xff 0xca 0x5c 0x0 0x46 0x70 0x59 0x68 0x4b 0xe0 0x4d 0x90 0x75 0x10 0x57 0x30 0x0 0x1 0x72 0xa5 0x24 0x63 0x24 0x76 0x24 0x63 0x24 0xac 0x0 0x18 0x0 0xa 0x5c 0x3 0x46 0x6e 0x59 0x6c 0x4b 0xe9 0x57 0x30 0x0 0x1e 0x0 0x1d 0x0 0x1d 0x24 0x63 0x0 0x2c 0x8 0x72 0x2a 0x83 0x0 0x0 0x1b 0x19 0x0 0x0 0x0 0x0 0x0 0x0 0x0 0x0 0x0 0xa6 0x0 0x8 0x0 0x5 0x27 0xe8 0x0 0x1 0xdb 0xfa 0x0 0x1 0xdb 0xfa 0x2 0x80 0x2 0x80 0x0 0x1b 0x0 0xd 0x0 0x0 0x1e 0x16 0x28 0x1e 0x0 0x0 0x23 0x3a 0x28 0x4e 0x35 0xd4 0x1 0xd4 0x9 0xd8 0x0 0x4 0x1d 0x82 0x0 0x17 0x0 0x21 0x0 0x0 0x0 0x0 0x0 0x0 0x0 0x0 0x23 0x29 0x0 0x0 0x20 0xcb
2020-08-16 19:07:26,599 MainThread      DEBUG    factory        :266      Factory Response[ReadHoldingRegistersResponse: 3]
2020-08-16 19:07:26,605 MainThread      DEBUG    transaction    :383      Adding transaction 1
2020-08-16 19:07:26,608 MainThread      DEBUG    transaction    :394      Getting transaction 1
2020-08-16 19:07:26,611 MainThread      DEBUG    transaction    :193      Changing transaction state from 'PROCESSING REPLY' to 'TRANSACTION_COMPLETE'
2020-08-16 19:11:15,436 MainThread      DEBUG    transaction    :115      Current transaction state - IDLE
2020-08-16 19:11:15,445 MainThread      DEBUG    transaction    :120      Running transaction 1
2020-08-16 19:11:15,449 MainThread      DEBUG    transaction    :219      SEND: 0x0 0x1 0x0 0x0 0x0 0x6 0x1 0x3 0x0 0x0 0x0 0x50
2020-08-16 19:11:15,452 MainThread      DEBUG    sync           :75       New Transaction state 'SENDING'
2020-08-16 19:11:15,455 MainThread      DEBUG    transaction    :228      Changing transaction state from 'SENDING' to 'WAITING FOR REPLY'
2020-08-16 19:11:15,475 MainThread      DEBUG    transaction    :304      Changing transaction state from 'WAITING FOR REPLY' to 'PROCESSING REPLY'
2020-08-16 19:11:15,483 MainThread      DEBUG    transaction    :233      RECV: 0x0 0x1 0x0 0x0 0x0 0xa3 0x1 0x3 0xa0 0x0 0xb4 0x0 0x0 0x0 0x50 0x0 0x0 0x0 0x32 0x0 0x0 0x0 0x0 0x0 0x0 0x24 0x69 0x24 0x59 0x24 0xb3 0xa 0xb6 0x0 0x15 0x0 0x1f 0x0 0x2e 0x5c 0x0 0x46 0x68 0x59 0x70 0x4b 0xf0 0x4d 0xc0 0x75 0x30 0x57 0x30 0x0 0x0 0x72 0xa5 0x24 0x5c 0x24 0x6f 0x24 0x5d 0x24 0xa4 0x0 0xb 0x0 0x6 0x5c 0x1 0x46 0x6d 0x59 0x6a 0x4b 0xe7 0x57 0x2f 0x0 0x1e 0x0 0x1c 0x0 0x1c 0x24 0x59 0x0 0x29 0x8 0x72 0x2a 0x83 0x0 0x0 0x1b 0x19 0x0 0x0 0x0 0x0 0x0 0x0 0x0 0x0 0x0 0xa6 0x0 0x8 0x0 0x5 0x27 0xfe 0x0 0x1 0xdb 0xfa 0x0 0x1 0xdb 0xfa 0x2 0x80 0x2 0x80 0x0 0xc 0x0 0x8 0x0 0x0 0x1d 0xe8 0x27 0xe1 0x0 0x0 0x23 0x3a 0x28 0x4e 0x35 0xd4 0x1 0xd4 0x9 0xd8 0x0 0x4 0x1d 0x82 0x0 0x17 0x0 0x21 0x0 0x0 0x0 0x0 0x0 0x0 0x0 0x0 0x23 0x29 0x0 0x0 0x20 0xcb
2020-08-16 19:11:15,491 MainThread      DEBUG    socket_framer  :147      Processing: 0x0 0x1 0x0 0x0 0x0 0xa3 0x1 0x3 0xa0 0x0 0xb4 0x0 0x0 0x0 0x50 0x0 0x0 0x0 0x32 0x0 0x0 0x0 0x0 0x0 0x0 0x24 0x69 0x24 0x59 0x24 0xb3 0xa 0xb6 0x0 0x15 0x0 0x1f 0x0 0x2e 0x5c 0x0 0x46 0x68 0x59 0x70 0x4b 0xf0 0x4d 0xc0 0x75 0x30 0x57 0x30 0x0 0x0 0x72 0xa5 0x24 0x5c 0x24 0x6f 0x24 0x5d 0x24 0xa4 0x0 0xb 0x0 0x6 0x5c 0x1 0x46 0x6d 0x59 0x6a 0x4b 0xe7 0x57 0x2f 0x0 0x1e 0x0 0x1c 0x0 0x1c 0x24 0x59 0x0 0x29 0x8 0x72 0x2a 0x83 0x0 0x0 0x1b 0x19 0x0 0x0 0x0 0x0 0x0 0x0 0x0 0x0 0x0 0xa6 0x0 0x8 0x0 0x5 0x27 0xfe 0x0 0x1 0xdb 0xfa 0x0 0x1 0xdb 0xfa 0x2 0x80 0x2 0x80 0x0 0xc 0x0 0x8 0x0 0x0 0x1d 0xe8 0x27 0xe1 0x0 0x0 0x23 0x3a 0x28 0x4e 0x35 0xd4 0x1 0xd4 0x9 0xd8 0x0 0x4 0x1d 0x82 0x0 0x17 0x0 0x21 0x0 0x0 0x0 0x0 0x0 0x0 0x0 0x0 0x23 0x29 0x0 0x0 0x20 0xcb
2020-08-16 19:11:15,496 MainThread      DEBUG    factory        :266      Factory Response[ReadHoldingRegistersResponse: 3]
2020-08-16 19:11:15,502 MainThread      DEBUG    transaction    :383      Adding transaction 1
2020-08-16 19:11:15,505 MainThread      DEBUG    transaction    :394      Getting transaction 1
2020-08-16 19:11:15,508 MainThread      DEBUG    transaction    :193      Changing transaction state from 'PROCESSING REPLY' to 'TRANSACTION_COMPLETE'
2020-08-17 04:58:50,955 MainThread      DEBUG    transaction    :115      Current transaction state - IDLE
2020-08-17 04:58:50,966 MainThread      DEBUG    transaction    :120      Running transaction 1
2020-08-17 04:58:50,981 MainThread      DEBUG    transaction    :219      SEND: 0x0 0x1 0x0 0x0 0x0 0x6 0x1 0x3 0x0 0x0 0x0 0x50
2020-08-17 04:58:50,984 MainThread      DEBUG    sync           :75       New Transaction state 'SENDING'
2020-08-17 04:58:50,987 MainThread      DEBUG    transaction    :228      Changing transaction state from 'SENDING' to 'WAITING FOR REPLY'
2020-08-17 04:58:51,002 MainThread      DEBUG    transaction    :304      Changing transaction state from 'WAITING FOR REPLY' to 'PROCESSING REPLY'
2020-08-17 04:58:51,020 MainThread      DEBUG    transaction    :233      RECV: 0x0 0x1 0x0 0x0 0x0 0xa3 0x1 0x3 0xa0 0x0 0xb4 0x0 0x0 0x0 0x50 0x0 0x0 0x0 0x32 0x0 0x0 0x0 0x0 0x0 0x0 0x24 0xf 0x23 0xfe 0x0 0x0 0x0 0x13 0x0 0x5 0xff 0xf9 0xff 0xff 0x5c 0x0 0x46 0x70 0x59 0x48 0x4b 0xf0 0x5b 0xe0 0x84 0xd0 0x57 0x30 0x0 0x1 0x72 0xa5 0x23 0xf9 0x24 0x7 0x23 0xfa 0x0 0x10 0x0 0x0 0x0 0x0 0x5c 0x0 0x46 0x68 0x59 0x46 0x4b 0xf5 0x57 0x2e 0x0 0x17 0x0 0x17 0x0 0x17 0x23 0xf9 0xff 0xf5 0x8 0x72 0x2a 0x83 0x0 0x0 0x1b 0x23 0x0 0x0 0x0 0x0 0x0 0x0 0x0 0x0 0x0 0xa6 0x0 0x9 0x0 0x3 0x0 0x0 0x0 0x1 0xdb 0xfa 0x0 0x1 0xdb 0xfa 0x2 0x80 0x2 0x80 0x0 0x0 0x0 0x0 0x0 0x0 0x1a 0xd3 0x23 0xc4 0x0 0x0 0x23 0x3a 0x28 0x4e 0x35 0xd4 0x1 0xd4 0x9 0xd8 0x0 0x4 0x1d 0x82 0x0 0x17 0x0 0x21 0x0 0x0 0x0 0x0 0x0 0x0 0x0 0x0 0x23 0x29 0x0 0x0 0x20 0xcb
2020-08-17 04:58:51,038 MainThread      DEBUG    socket_framer  :147      Processing: 0x0 0x1 0x0 0x0 0x0 0xa3 0x1 0x3 0xa0 0x0 0xb4 0x0 0x0 0x0 0x50 0x0 0x0 0x0 0x32 0x0 0x0 0x0 0x0 0x0 0x0 0x24 0xf 0x23 0xfe 0x0 0x0 0x0 0x13 0x0 0x5 0xff 0xf9 0xff 0xff 0x5c 0x0 0x46 0x70 0x59 0x48 0x4b 0xf0 0x5b 0xe0 0x84 0xd0 0x57 0x30 0x0 0x1 0x72 0xa5 0x23 0xf9 0x24 0x7 0x23 0xfa 0x0 0x10 0x0 0x0 0x0 0x0 0x5c 0x0 0x46 0x68 0x59 0x46 0x4b 0xf5 0x57 0x2e 0x0 0x17 0x0 0x17 0x0 0x17 0x23 0xf9 0xff 0xf5 0x8 0x72 0x2a 0x83 0x0 0x0 0x1b 0x23 0x0 0x0 0x0 0x0 0x0 0x0 0x0 0x0 0x0 0xa6 0x0 0x9 0x0 0x3 0x0 0x0 0x0 0x1 0xdb 0xfa 0x0 0x1 0xdb 0xfa 0x2 0x80 0x2 0x80 0x0 0x0 0x0 0x0 0x0 0x0 0x1a 0xd3 0x23 0xc4 0x0 0x0 0x23 0x3a 0x28 0x4e 0x35 0xd4 0x1 0xd4 0x9 0xd8 0x0 0x4 0x1d 0x82 0x0 0x17 0x0 0x21 0x0 0x0 0x0 0x0 0x0 0x0 0x0 0x0 0x23 0x29 0x0 0x0 0x20 0xcb
2020-08-17 04:58:51,042 MainThread      DEBUG    factory        :266      Factory Response[ReadHoldingRegistersResponse: 3]
2020-08-17 04:58:51,059 MainThread      DEBUG    transaction    :383      Adding transaction 1
2020-08-17 04:58:51,062 MainThread      DEBUG    transaction    :394      Getting transaction 1
2020-08-17 04:58:51,065 MainThread      DEBUG    transaction    :193      Changing transaction state from 'PROCESSING REPLY' to 'TRANSACTION_COMPLETE'
2020-08-17 07:23:10,551 MainThread      DEBUG    transaction    :115      Current transaction state - IDLE
2020-08-17 07:23:10,557 MainThread      DEBUG    transaction    :120      Running transaction 1
2020-08-17 07:23:10,561 MainThread      DEBUG    transaction    :219      SEND: 0x0 0x1 0x0 0x0 0x0 0x6 0x1 0x3 0x0 0x0 0x0 0x50
2020-08-17 07:23:10,564 MainThread      DEBUG    sync           :75       New Transaction state 'SENDING'
2020-08-17 07:23:10,567 MainThread      DEBUG    transaction    :228      Changing transaction state from 'SENDING' to 'WAITING FOR REPLY'
2020-08-17 07:23:13,575 MainThread      DEBUG    transaction    :238      Transaction failed. (Modbus Error: [Invalid Message] Incomplete message received, expected at least 8 bytes (0 received)) 
2020-08-17 07:23:13,578 MainThread      DEBUG    socket_framer  :147      Processing: 
2020-08-17 07:23:13,581 MainThread      DEBUG    transaction    :394      Getting transaction 1
2020-08-17 07:23:13,584 MainThread      DEBUG    transaction    :193      Changing transaction state from 'PROCESSING REPLY' to 'TRANSACTION_COMPLETE'
2020-08-17 07:23:34,142 MainThread      ERROR    sync           :215      Connection to (192.168.0.244, 502) failed: timed out
2020-08-17 07:23:37,151 MainThread      ERROR    sync           :215      Connection to (192.168.0.244, 502) failed: timed out
2020-08-17 08:30:48,521 MainThread      ERROR    sync           :215      Connection to (192.168.0.244, 502) failed: timed out
2020-08-17 08:30:51,533 MainThread      ERROR    sync           :215      Connection to (192.168.0.244, 502) failed: timed out
2020-08-21 20:00:21,013 MainThread      DEBUG    transaction    :115      Current transaction state - IDLE
2020-08-21 20:00:21,026 MainThread      DEBUG    transaction    :120      Running transaction 1
2020-08-21 20:00:21,030 MainThread      DEBUG    transaction    :219      SEND: 0x0 0x1 0x0 0x0 0x0 0x6 0x1 0x3 0x0 0x0 0x0 0x50
2020-08-21 20:00:21,033 MainThread      DEBUG    sync           :75       New Transaction state 'SENDING'
2020-08-21 20:00:21,036 MainThread      DEBUG    transaction    :228      Changing transaction state from 'SENDING' to 'WAITING FOR REPLY'
2020-08-21 20:00:21,056 MainThread      DEBUG    transaction    :304      Changing transaction state from 'WAITING FOR REPLY' to 'PROCESSING REPLY'
2020-08-21 20:00:21,064 MainThread      DEBUG    transaction    :233      RECV: 0x0 0x1 0x0 0x0 0x0 0xa3 0x1 0x3 0xa0 0x0 0xb4 0x0 0x0 0x0 0x50 0x0 0x0 0x0 0x32 0x0 0x0 0x0 0x0 0x0 0x0 0x22 0x58 0x22 0x42 0x22 0x7c 0xa 0x82 0xff 0xf5 0xff 0xdd 0x0 0x1 0x5c 0x0 0x46 0x68 0x59 0x68 0x4b 0xe0 0x4e 0x40 0x77 0x40 0x57 0x30 0x0 0x1 0x72 0xa5 0x22 0x39 0x22 0x55 0x22 0x45 0x22 0x7e 0xff 0xdf 0x0 0x3 0x5c 0x2 0x46 0x6c 0x59 0x6a 0x4b 0xea 0x57 0x31 0x0 0x1e 0x0 0x1c 0x0 0x1c 0x22 0x3b 0x0 0x4 0x8 0x72 0x2a 0x83 0x0 0x0 0x1b 0x92 0x0 0x0 0x0 0x0 0x0 0x0 0x0 0x0 0x0 0xa6 0x0 0x9 0x0 0x5 0x27 0xfe 0x0 0x1 0xe9 0xb5 0x0 0x1 0xe9 0xb5 0x2 0x93 0x2 0x93 0x0 0x0 0x0 0x2 0x0 0x0 0x1a 0x91 0x23 0x65 0x0 0x0 0x21 0x23 0x24 0xa4 0x36 0x6f 0x3 0x38 0x10 0x18 0x0 0x0 0x23 0x45 0x0 0x12 0x0 0x21 0x0 0x0 0x0 0x0 0x0 0x0 0x0 0x0 0x0 0x0 0x0 0x0 0x0 0x0
2020-08-21 20:00:21,074 MainThread      DEBUG    socket_framer  :147      Processing: 0x0 0x1 0x0 0x0 0x0 0xa3 0x1 0x3 0xa0 0x0 0xb4 0x0 0x0 0x0 0x50 0x0 0x0 0x0 0x32 0x0 0x0 0x0 0x0 0x0 0x0 0x22 0x58 0x22 0x42 0x22 0x7c 0xa 0x82 0xff 0xf5 0xff 0xdd 0x0 0x1 0x5c 0x0 0x46 0x68 0x59 0x68 0x4b 0xe0 0x4e 0x40 0x77 0x40 0x57 0x30 0x0 0x1 0x72 0xa5 0x22 0x39 0x22 0x55 0x22 0x45 0x22 0x7e 0xff 0xdf 0x0 0x3 0x5c 0x2 0x46 0x6c 0x59 0x6a 0x4b 0xea 0x57 0x31 0x0 0x1e 0x0 0x1c 0x0 0x1c 0x22 0x3b 0x0 0x4 0x8 0x72 0x2a 0x83 0x0 0x0 0x1b 0x92 0x0 0x0 0x0 0x0 0x0 0x0 0x0 0x0 0x0 0xa6 0x0 0x9 0x0 0x5 0x27 0xfe 0x0 0x1 0xe9 0xb5 0x0 0x1 0xe9 0xb5 0x2 0x93 0x2 0x93 0x0 0x0 0x0 0x2 0x0 0x0 0x1a 0x91 0x23 0x65 0x0 0x0 0x21 0x23 0x24 0xa4 0x36 0x6f 0x3 0x38 0x10 0x18 0x0 0x0 0x23 0x45 0x0 0x12 0x0 0x21 0x0 0x0 0x0 0x0 0x0 0x0 0x0 0x0 0x0 0x0 0x0 0x0 0x0 0x0
2020-08-21 20:00:21,078 MainThread      DEBUG    factory        :266      Factory Response[ReadHoldingRegistersResponse: 3]
2020-08-21 20:00:21,085 MainThread      DEBUG    transaction    :383      Adding transaction 1
2020-08-21 20:00:21,088 MainThread      DEBUG    transaction    :394      Getting transaction 1
2020-08-21 20:00:21,091 MainThread      DEBUG    transaction    :193      Changing transaction state from 'PROCESSING REPLY' to 'TRANSACTION_COMPLETE'
2020-08-21 20:00:56,288 MainThread      DEBUG    transaction    :115      Current transaction state - IDLE
2020-08-21 20:00:56,291 MainThread      DEBUG    transaction    :120      Running transaction 1
2020-08-21 20:00:56,295 MainThread      DEBUG    transaction    :219      SEND: 0x0 0x1 0x0 0x0 0x0 0x6 0x1 0x3 0x0 0x0 0x0 0x50
2020-08-21 20:00:56,309 MainThread      DEBUG    sync           :75       New Transaction state 'SENDING'
2020-08-21 20:00:56,312 MainThread      DEBUG    transaction    :228      Changing transaction state from 'SENDING' to 'WAITING FOR REPLY'
2020-08-21 20:00:56,332 MainThread      DEBUG    transaction    :304      Changing transaction state from 'WAITING FOR REPLY' to 'PROCESSING REPLY'
2020-08-21 20:00:56,340 MainThread      DEBUG    transaction    :233      RECV: 0x0 0x1 0x0 0x0 0x0 0xa3 0x1 0x3 0xa0 0x0 0xb4 0x0 0x0 0x0 0x50 0x0 0x0 0x0 0x32 0x0 0x0 0x0 0x0 0x0 0x0 0x22 0x3c 0x22 0x2c 0x22 0x4a 0xa 0x83 0x0 0x87 0x0 0x90 0x0 0xfc 0x5c 0x0 0x46 0x68 0x59 0x70 0x4b 0xe0 0x4e 0x30 0x77 0x60 0x57 0x28 0x0 0x1 0x72 0xa5 0x22 0x38 0x22 0x2a 0x22 0x2c 0x22 0x7c 0x0 0x36 0x0 0x2 0x5c 0x1 0x46 0x6c 0x59 0x69 0x4b 0xe8 0x57 0x30 0x0 0x1e 0x0 0x1c 0x0 0x1c 0x22 0x39 0x0 0x10 0x8 0x72 0x2a 0x83 0x0 0x0 0x1b 0x92 0x0 0x0 0x0 0x0 0x0 0x0 0x0 0x0 0x0 0xa6 0x0 0x9 0x0 0x5 0x27 0xfe 0x0 0x1 0xe9 0xb5 0x0 0x1 0xe9 0xb5 0x2 0x93 0x2 0x93 0x0 0x3a 0x0 0x2 0x0 0x0 0x1a 0x91 0x23 0x65 0x0 0x0 0x21 0x23 0x24 0xa4 0x36 0x6f 0x3 0x38 0x10 0x18 0x0 0x0 0x23 0x45 0x0 0x12 0x0 0x21 0x0 0x0 0x0 0x0 0x0 0x0 0x0 0x0 0x0 0x0 0x0 0x0 0x0 0x0
2020-08-21 20:00:56,348 MainThread      DEBUG    socket_framer  :147      Processing: 0x0 0x1 0x0 0x0 0x0 0xa3 0x1 0x3 0xa0 0x0 0xb4 0x0 0x0 0x0 0x50 0x0 0x0 0x0 0x32 0x0 0x0 0x0 0x0 0x0 0x0 0x22 0x3c 0x22 0x2c 0x22 0x4a 0xa 0x83 0x0 0x87 0x0 0x90 0x0 0xfc 0x5c 0x0 0x46 0x68 0x59 0x70 0x4b 0xe0 0x4e 0x30 0x77 0x60 0x57 0x28 0x0 0x1 0x72 0xa5 0x22 0x38 0x22 0x2a 0x22 0x2c 0x22 0x7c 0x0 0x36 0x0 0x2 0x5c 0x1 0x46 0x6c 0x59 0x69 0x4b 0xe8 0x57 0x30 0x0 0x1e 0x0 0x1c 0x0 0x1c 0x22 0x39 0x0 0x10 0x8 0x72 0x2a 0x83 0x0 0x0 0x1b 0x92 0x0 0x0 0x0 0x0 0x0 0x0 0x0 0x0 0x0 0xa6 0x0 0x9 0x0 0x5 0x27 0xfe 0x0 0x1 0xe9 0xb5 0x0 0x1 0xe9 0xb5 0x2 0x93 0x2 0x93 0x0 0x3a 0x0 0x2 0x0 0x0 0x1a 0x91 0x23 0x65 0x0 0x0 0x21 0x23 0x24 0xa4 0x36 0x6f 0x3 0x38 0x10 0x18 0x0 0x0 0x23 0x45 0x0 0x12 0x0 0x21 0x0 0x0 0x0 0x0 0x0 0x0 0x0 0x0 0x0 0x0 0x0 0x0 0x0 0x0
2020-08-21 20:00:56,351 MainThread      DEBUG    factory        :266      Factory Response[ReadHoldingRegistersResponse: 3]
2020-08-21 20:00:56,358 MainThread      DEBUG    transaction    :383      Adding transaction 1
2020-08-21 20:00:56,361 MainThread      DEBUG    transaction    :394      Getting transaction 1
2020-08-21 20:00:56,364 MainThread      DEBUG    transaction    :193      Changing transaction state from 'PROCESSING REPLY' to 'TRANSACTION_COMPLETE'
2020-08-21 20:02:34,017 MainThread      DEBUG    transaction    :115      Current transaction state - IDLE
2020-08-21 20:02:34,022 MainThread      DEBUG    transaction    :120      Running transaction 1
2020-08-21 20:02:34,027 MainThread      DEBUG    transaction    :219      SEND: 0x0 0x1 0x0 0x0 0x0 0x6 0x1 0x3 0x0 0x0 0x0 0x50
2020-08-21 20:02:34,030 MainThread      DEBUG    sync           :75       New Transaction state 'SENDING'
2020-08-21 20:02:34,033 MainThread      DEBUG    transaction    :228      Changing transaction state from 'SENDING' to 'WAITING FOR REPLY'
2020-08-21 20:02:34,054 MainThread      DEBUG    transaction    :304      Changing transaction state from 'WAITING FOR REPLY' to 'PROCESSING REPLY'
2020-08-21 20:02:34,062 MainThread      DEBUG    transaction    :233      RECV: 0x0 0x1 0x0 0x0 0x0 0xa3 0x1 0x3 0xa0 0x0 0xb4 0x0 0x0 0x0 0x50 0x0 0x0 0x0 0x32 0x0 0x0 0x0 0x0 0x0 0x0 0x22 0x2b 0x22 0x30 0x22 0x73 0xa 0x82 0xff 0xfc 0x0 0x51 0x0 0x43 0x5c 0x0 0x46 0x68 0x59 0x68 0x4b 0xe8 0x4e 0x60 0x77 0x70 0x57 0x38 0x0 0x1 0x72 0xa5 0x22 0x3a 0x22 0x3e 0x22 0x31 0x22 0x7e 0x0 0x41 0x0 0x3 0x5c 0x3 0x46 0x6e 0x59 0x6b 0x4b 0xeb 0x57 0x33 0x0 0x1e 0x0 0x1c 0x0 0x1c 0x22 0x39 0x0 0x10 0x8 0x72 0x2a 0x83 0x0 0x0 0x1b 0x92 0x0 0x0 0x0 0x0 0x0 0x0 0x0 0x0 0x0 0xa6 0x0 0x9 0x0 0x5 0x27 0xfe 0x0 0x1 0xe9 0xb5 0x0 0x1 0xe9 0xb5 0x2 0x93 0x2 0x93 0x0 0x45 0x0 0x2 0x0 0x0 0x1a 0x91 0x23 0x65 0x0 0x0 0x21 0x23 0x24 0xa4 0x36 0x6f 0x3 0x38 0x10 0x18 0x0 0x0 0x23 0x45 0x0 0x12 0x0 0x21 0x0 0x0 0x0 0x0 0x0 0x0 0x0 0x0 0x0 0x0 0x0 0x0 0x0 0x0
